Time [s],Packet ID,Address,Data,Read/Write,ACK/NAK
0.1424110000,0,0xD4,0x0F,Write,ACK
0.1424992000,1,0xD5,0x6B,Read,NAK
0.1425684000,3,0xD4,0x12,Write,ACK
0.1425988000,3,0xD4,0x01,Write,ACK
0.1433826000,5,0xD4,0x12,Write,ACK
0.1434474000,6,0xD5,0x04,Read,NAK
0.1435148000,8,0xD4,0x12,Write,ACK
0.1435452000,8,0xD4,0x44,Write,ACK
0.2434200000,10,0xD4,0x13,Write,ACK
0.2434514000,10,0xD4,0x02,Write,ACK
0.2435394000,12,0xD4,0x11,Write,ACK
0.2435698000,12,0xD4,0x32,Write,ACK
0.2436360000,14,0xD4,0x15,Write,ACK
0.2436664000,14,0xD4,0x07,Write,ACK
0.2437356000,16,0xD4,0x15,Write,ACK
0.2438364000,17,0xD5,0x07,Read,NAK
0.3434616000,19,0xD4,0x10,Write,ACK
0.3434928000,19,0xD4,0x32,Write,ACK
0.3435612000,21,0xD4,0x17,Write,ACK
0.3435914000,21,0xD4,0x20,Write,ACK
0.3436590000,23,0xD4,0x10,Write,ACK
0.3437266000,24,0xD5,0x32,Read,NAK
0.3437940000,26,0xD4,0x17,Write,ACK
0.3439098000,27,0xD5,0x20,Read,NAK
0.6435248000,29,0xD4,0x10,Write,ACK
0.6435946000,30,0xD5,0x32,Read,NAK
0.6436630000,32,0xD4,0x11,Write,ACK
0.6437288000,33,0xD5,0x32,Read,NAK
0.8435910000,35,0xD4,0x1E,Write,ACK
0.8436614000,36,0xD5,0x07,Read,NAK
0.8437298000,38,0xD4,0x28,Write,ACK
0.8437948000,39,0xD5,0xDE,Read,ACK
0.8438252000,39,0xD5,0x00,Read,ACK
0.8438556000,39,0xD5,0x4C,Read,ACK
0.8438860000,39,0xD5,0xFF,Read,ACK
0.8439164000,39,0xD5,0x78,Read,ACK
0.8439982000,39,0xD5,0x40,Read,NAK
0.8440646000,41,0xD4,0x20,Write,ACK
0.8441296000,42,0xD5,0xF3,Read,ACK
0.8441598000,42,0xD5,0xFB,Read,ACK
0.8441902000,42,0xD5,0x5F,Read,ACK
0.8442206000,42,0xD5,0x00,Read,ACK
0.8442512000,42,0xD5,0x62,Read,ACK
0.8442816000,42,0xD5,0xFF,Read,ACK
0.8443118000,42,0xD5,0xAE,Read,ACK
0.8443422000,42,0xD5,0xFF,Read,NAK
0.8444162000,44,0xD4,0x1E,Write,ACK
0.8444810000,45,0xD5,0x00,Read,NAK
0.8626100000,47,0xD4,0x1E,Write,ACK
0.8626748000,48,0xD5,0x07,Read,NAK
0.8627414000,50,0xD4,0x28,Write,ACK
0.8628062000,51,0xD5,0xDE,Read,ACK
0.8628366000,51,0xD5,0x00,Read,ACK
0.8628670000,51,0xD5,0x4E,Read,ACK
0.8628974000,51,0xD5,0xFF,Read,ACK
0.8629276000,51,0xD5,0x74,Read,ACK
0.8629988000,51,0xD5,0x40,Read,NAK
0.8630652000,53,0xD4,0x20,Write,ACK
0.8631302000,54,0xD5,0xEE,Read,ACK
0.8631606000,54,0xD5,0xFB,Read,ACK
0.8631908000,54,0xD5,0x65,Read,ACK
0.8632212000,54,0xD5,0x00,Read,ACK
0.8632518000,54,0xD5,0x52,Read,ACK
0.8632822000,54,0xD5,0xFF,Read,ACK
0.8633126000,54,0xD5,0xAC,Read,ACK
0.8633428000,54,0xD5,0xFF,Read,NAK
0.8826142000,56,0xD4,0x1E,Write,ACK
0.8826818000,57,0xD5,0x07,Read,NAK
0.8827482000,59,0xD4,0x28,Write,ACK
0.8828130000,60,0xD5,0xDE,Read,ACK
0.8828434000,60,0xD5,0x00,Read,ACK
0.8828738000,60,0xD5,0x52,Read,ACK
0.8829042000,60,0xD5,0xFF,Read,ACK
0.8829344000,60,0xD5,0x75,Read,ACK
0.8830040000,60,0xD5,0x40,Read,NAK
0.8830704000,62,0xD4,0x20,Write,ACK
0.8831352000,63,0xD5,0xF3,Read,ACK
0.8831654000,63,0xD5,0xFB,Read,ACK
0.8831958000,63,0xD5,0x63,Read,ACK
0.8832262000,63,0xD5,0x00,Read,ACK
0.8832566000,63,0xD5,0x5B,Read,ACK
0.8832868000,63,0xD5,0xFF,Read,ACK
0.8833170000,63,0xD5,0xB3,Read,ACK
0.8833474000,63,0xD5,0xFF,Read,NAK
0.9026164000,65,0xD4,0x1E,Write,ACK
0.9026812000,66,0xD5,0x07,Read,NAK
0.9027476000,68,0xD4,0x28,Write,ACK
0.9028124000,69,0xD5,0xDA,Read,ACK
0.9028426000,69,0xD5,0x00,Read,ACK
0.9028732000,69,0xD5,0x52,Read,ACK
0.9029034000,69,0xD5,0xFF,Read,ACK
0.9029336000,69,0xD5,0x78,Read,ACK
0.9030096000,69,0xD5,0x40,Read,NAK
0.9030760000,71,0xD4,0x20,Write,ACK
0.9031408000,72,0xD5,0xF7,Read,ACK
0.9031710000,72,0xD5,0xFB,Read,ACK
0.9032012000,72,0xD5,0x5D,Read,ACK
0.9032316000,72,0xD5,0x00,Read,ACK
0.9032620000,72,0xD5,0x60,Read,ACK
0.9032924000,72,0xD5,0xFF,Read,ACK
0.9033228000,72,0xD5,0xB3,Read,ACK
0.9033530000,72,0xD5,0xFF,Read,NAK
0.9226268000,74,0xD4,0x1E,Write,ACK
0.9226944000,75,0xD5,0x07,Read,NAK
0.9227608000,77,0xD4,0x28,Write,ACK
0.9228258000,78,0xD5,0xD8,Read,ACK
0.9228560000,78,0xD5,0x00,Read,ACK
0.9228866000,78,0xD5,0x52,Read,ACK
0.9229168000,78,0xD5,0xFF,Read,ACK
0.9229472000,78,0xD5,0x6E,Read,ACK
0.9230176000,78,0xD5,0x40,Read,NAK
0.9230892000,80,0xD4,0x20,Write,ACK
0.9231608000,81,0xD5,0xF3,Read,ACK
0.9231914000,81,0xD5,0xFB,Read,ACK
0.9232224000,81,0xD5,0x5D,Read,ACK
0.9232532000,81,0xD5,0x00,Read,ACK
0.9232838000,81,0xD5,0x53,Read,ACK
0.9233146000,81,0xD5,0xFF,Read,ACK
0.9233452000,81,0xD5,0xB0,Read,ACK
0.9233758000,81,0xD5,0xFF,Read,NAK
0.9426266000,83,0xD4,0x1E,Write,ACK
0.9426932000,84,0xD5,0x07,Read,NAK
0.9427596000,86,0xD4,0x28,Write,ACK
0.9428256000,87,0xD5,0xD8,Read,ACK
0.9428560000,87,0xD5,0x00,Read,ACK
0.9428864000,87,0xD5,0x54,Read,ACK
0.9429170000,87,0xD5,0xFF,Read,ACK
0.9429472000,87,0xD5,0x6C,Read,ACK
0.9430202000,87,0xD5,0x40,Read,NAK
0.9430868000,89,0xD4,0x20,Write,ACK
0.9431514000,90,0xD5,0xEC,Read,ACK
0.9431818000,90,0xD5,0xFB,Read,ACK
0.9432122000,90,0xD5,0x58,Read,ACK
0.9432426000,90,0xD5,0x00,Read,ACK
0.9432730000,90,0xD5,0x5C,Read,ACK
0.9433034000,90,0xD5,0xFF,Read,ACK
0.9433336000,90,0xD5,0xB1,Read,ACK
0.9433642000,90,0xD5,0xFF,Read,NAK
0.9626392000,92,0xD4,0x1E,Write,ACK
0.9627068000,93,0xD5,0x07,Read,NAK
0.9627734000,95,0xD4,0x28,Write,ACK
0.9628382000,96,0xD5,0xD8,Read,ACK
0.9628686000,96,0xD5,0x00,Read,ACK
0.9628990000,96,0xD5,0x56,Read,ACK
0.9629294000,96,0xD5,0xFF,Read,ACK
0.9629598000,96,0xD5,0x7C,Read,ACK
0.9630294000,96,0xD5,0x40,Read,NAK
0.9630958000,98,0xD4,0x20,Write,ACK
0.9631608000,99,0xD5,0xF1,Read,ACK
0.9631912000,99,0xD5,0xFB,Read,ACK
0.9632214000,99,0xD5,0x57,Read,ACK
0.9632518000,99,0xD5,0x00,Read,ACK
0.9632824000,99,0xD5,0x67,Read,ACK
0.9633128000,99,0xD5,0xFF,Read,ACK
0.9633430000,99,0xD5,0xAF,Read,ACK
0.9633734000,99,0xD5,0xFF,Read,NAK
0.9826368000,101,0xD4,0x1E,Write,ACK
0.9827016000,102,0xD5,0x07,Read,NAK
0.9827680000,104,0xD4,0x28,Write,ACK
0.9828330000,105,0xD5,0xD9,Read,ACK
0.9828634000,105,0xD5,0x00,Read,ACK
0.9828938000,105,0xD5,0x54,Read,ACK
0.9829242000,105,0xD5,0xFF,Read,ACK
0.9829544000,105,0xD5,0x7A,Read,ACK
0.9830304000,105,0xD5,0x40,Read,NAK
0.9830968000,107,0xD4,0x20,Write,ACK
0.9831618000,108,0xD5,0xFC,Read,ACK
0.9831920000,108,0xD5,0xFB,Read,ACK
0.9832222000,108,0xD5,0x5B,Read,ACK
0.9832526000,108,0xD5,0x00,Read,ACK
0.9832832000,108,0xD5,0x5B,Read,ACK
0.9833136000,108,0xD5,0xFF,Read,ACK
0.9833438000,108,0xD5,0xAB,Read,ACK
0.9833742000,108,0xD5,0xFF,Read,NAK
1.0026496000,110,0xD4,0x1E,Write,ACK
1.0027170000,111,0xD5,0x07,Read,NAK
1.0027836000,113,0xD4,0x28,Write,ACK
1.0028484000,114,0xD5,0xDC,Read,ACK
1.0028786000,114,0xD5,0x00,Read,ACK
1.0029090000,114,0xD5,0x53,Read,ACK
1.0029392000,114,0xD5,0xFF,Read,ACK
1.0029696000,114,0xD5,0x6A,Read,ACK
1.0030358000,114,0xD5,0x40,Read,NAK
1.0031024000,116,0xD4,0x20,Write,ACK
1.0031670000,117,0xD5,0xE1,Read,ACK
1.0031974000,117,0xD5,0xFB,Read,ACK
1.0032276000,117,0xD5,0x5D,Read,ACK
1.0032580000,117,0xD5,0x00,Read,ACK
1.0032884000,117,0xD5,0x5E,Read,ACK
1.0033188000,117,0xD5,0xFF,Read,ACK
1.0033492000,117,0xD5,0xAF,Read,ACK
1.0033794000,117,0xD5,0xFF,Read,NAK
1.0226484000,119,0xD4,0x1E,Write,ACK
1.0227130000,120,0xD5,0x07,Read,NAK
1.0227796000,122,0xD4,0x28,Write,ACK
1.0228444000,123,0xD5,0xDC,Read,ACK
1.0228748000,123,0xD5,0x00,Read,ACK
1.0229052000,123,0xD5,0x52,Read,ACK
1.0229356000,123,0xD5,0xFF,Read,ACK
1.0229658000,123,0xD5,0x6E,Read,ACK
1.0230440000,123,0xD5,0x40,Read,NAK
1.0231190000,125,0xD4,0x20,Write,ACK
1.0231910000,126,0xD5,0xF7,Read,ACK
1.0232214000,126,0xD5,0xFB,Read,ACK
1.0232526000,126,0xD5,0x6B,Read,ACK
1.0232834000,126,0xD5,0x00,Read,ACK
1.0233140000,126,0xD5,0x57,Read,ACK
1.0233454000,126,0xD5,0xFF,Read,ACK
1.0233758000,126,0xD5,0xB0,Read,ACK
1.0234066000,126,0xD5,0xFF,Read,NAK
1.0426524000,128,0xD4,0x1E,Write,ACK
1.0427180000,129,0xD5,0x07,Read,NAK
1.0427846000,131,0xD4,0x28,Write,ACK
1.0428504000,132,0xD5,0xE0,Read,ACK
1.0428808000,132,0xD5,0x00,Read,ACK
1.0429114000,132,0xD5,0x52,Read,ACK
1.0429418000,132,0xD5,0xFF,Read,ACK
1.0429720000,132,0xD5,0x7C,Read,ACK
1.0430466000,132,0xD5,0x40,Read,NAK
1.0431130000,134,0xD4,0x20,Write,ACK
1.0431778000,135,0xD5,0x00,Read,ACK
1.0432082000,135,0xD5,0xFC,Read,ACK
1.0432386000,135,0xD5,0x60,Read,ACK
1.0432690000,135,0xD5,0x00,Read,ACK
1.0432994000,135,0xD5,0x61,Read,ACK
1.0433298000,135,0xD5,0xFF,Read,ACK
1.0433602000,135,0xD5,0xB3,Read,ACK
1.0433906000,135,0xD5,0xFF,Read,NAK
1.0626636000,137,0xD4,0x1E,Write,ACK
1.0627312000,138,0xD5,0x07,Read,NAK
1.0627978000,140,0xD4,0x28,Write,ACK
1.0628626000,141,0xD5,0xE1,Read,ACK
1.0628930000,141,0xD5,0x00,Read,ACK
1.0629236000,141,0xD5,0x4E,Read,ACK
1.0629540000,141,0xD5,0xFF,Read,ACK
1.0629842000,141,0xD5,0x78,Read,ACK
1.0630518000,141,0xD5,0x40,Read,NAK
1.0631184000,143,0xD4,0x20,Write,ACK
1.0631832000,144,0xD5,0xFD,Read,ACK
1.0632134000,144,0xD5,0xFB,Read,ACK
1.0632438000,144,0xD5,0x6C,Read,ACK
1.0632742000,144,0xD5,0x00,Read,ACK
1.0633046000,144,0xD5,0x53,Read,ACK
1.0633350000,144,0xD5,0xFF,Read,ACK
1.0633654000,144,0xD5,0xB8,Read,ACK
1.0633958000,144,0xD5,0xFF,Read,NAK
1.0826640000,146,0xD4,0x1E,Write,ACK
1.0827288000,147,0xD5,0x07,Read,NAK
1.0827954000,149,0xD4,0x28,Write,ACK
1.0828602000,150,0xD5,0xE2,Read,ACK
1.0828906000,150,0xD5,0x00,Read,ACK
1.0829210000,150,0xD5,0x4F,Read,ACK
1.0829514000,150,0xD5,0xFF,Read,ACK
1.0829816000,150,0xD5,0x78,Read,ACK
1.0830572000,150,0xD5,0x40,Read,NAK
1.0831238000,152,0xD4,0x20,Write,ACK
1.0831886000,153,0xD5,0xF5,Read,ACK
1.0832190000,153,0xD5,0xFB,Read,ACK
1.0832492000,153,0xD5,0x59,Read,ACK
1.0832796000,153,0xD5,0x00,Read,ACK
1.0833102000,153,0xD5,0x56,Read,ACK
1.0833406000,153,0xD5,0xFF,Read,ACK
1.0833708000,153,0xD5,0xB4,Read,ACK
1.0834012000,153,0xD5,0xFF,Read,NAK
1.1026740000,155,0xD4,0x1E,Write,ACK
1.1027416000,156,0xD5,0x07,Read,NAK
1.1028082000,158,0xD4,0x28,Write,ACK
1.1028730000,159,0xD5,0xE1,Read,ACK
1.1029032000,159,0xD5,0x00,Read,ACK
1.1029338000,159,0xD5,0x55,Read,ACK
1.1029640000,159,0xD5,0xFF,Read,ACK
1.1029942000,159,0xD5,0x75,Read,ACK
1.1030624000,159,0xD5,0x40,Read,NAK
1.1031290000,161,0xD4,0x20,Write,ACK
1.1031936000,162,0xD5,0xFE,Read,ACK
1.1032238000,162,0xD5,0xFB,Read,ACK
1.1032542000,162,0xD5,0x59,Read,ACK
1.1032844000,162,0xD5,0x00,Read,ACK
1.1033148000,162,0xD5,0x60,Read,ACK
1.1033454000,162,0xD5,0xFF,Read,ACK
1.1033756000,162,0xD5,0xAF,Read,ACK
1.1034060000,162,0xD5,0xFF,Read,NAK
1.1226746000,164,0xD4,0x1E,Write,ACK
1.1227394000,165,0xD5,0x07,Read,NAK
1.1228058000,167,0xD4,0x28,Write,ACK
1.1228706000,168,0xD5,0xDE,Read,ACK
1.1229010000,168,0xD5,0x00,Read,ACK
1.1229314000,168,0xD5,0x54,Read,ACK
1.1229618000,168,0xD5,0xFF,Read,ACK
1.1229922000,168,0xD5,0x6E,Read,ACK
1.1230748000,168,0xD5,0x40,Read,NAK
1.1231488000,170,0xD4,0x20,Write,ACK
1.1232206000,171,0xD5,0xFC,Read,ACK
1.1232512000,171,0xD5,0xFB,Read,ACK
1.1232824000,171,0xD5,0x59,Read,ACK
1.1233130000,171,0xD5,0x00,Read,ACK
1.1233438000,171,0xD5,0x68,Read,ACK
1.1233744000,171,0xD5,0xFF,Read,ACK
1.1234048000,171,0xD5,0xAE,Read,ACK
1.1234354000,171,0xD5,0xFF,Read,NAK
1.1426800000,173,0xD4,0x1E,Write,ACK
1.1427488000,174,0xD5,0x07,Read,NAK
1.1428164000,176,0xD4,0x28,Write,ACK
1.1428812000,177,0xD5,0xDC,Read,ACK
1.1429116000,177,0xD5,0x00,Read,ACK
1.1429420000,177,0xD5,0x56,Read,ACK
1.1429724000,177,0xD5,0xFF,Read,ACK
1.1430026000,177,0xD5,0x6F,Read,ACK
1.1431048000,177,0xD5,0x40,Read,NAK
1.1431712000,179,0xD4,0x20,Write,ACK
1.1432362000,180,0xD5,0x0A,Read,ACK
1.1432666000,180,0xD5,0xFC,Read,ACK
1.1432970000,180,0xD5,0x63,Read,ACK
1.1433274000,180,0xD5,0x00,Read,ACK
1.1433578000,180,0xD5,0x5D,Read,ACK
1.1433882000,180,0xD5,0xFF,Read,ACK
1.1434186000,180,0xD5,0xB1,Read,ACK
1.1434490000,180,0xD5,0xFF,Read,NAK
1.1626872000,182,0xD4,0x1E,Write,ACK
1.1627520000,183,0xD5,0x07,Read,NAK
1.1628186000,185,0xD4,0x28,Write,ACK
1.1628834000,186,0xD5,0xDC,Read,ACK
1.1629138000,186,0xD5,0x00,Read,ACK
1.1629442000,186,0xD5,0x54,Read,ACK
1.1629746000,186,0xD5,0xFF,Read,ACK
1.1630050000,186,0xD5,0x7C,Read,ACK
1.1630786000,186,0xD5,0x40,Read,NAK
1.1631452000,188,0xD4,0x20,Write,ACK
1.1632102000,189,0xD5,0x03,Read,ACK
1.1632406000,189,0xD5,0xFC,Read,ACK
1.1632710000,189,0xD5,0x54,Read,ACK
1.1633014000,189,0xD5,0x00,Read,ACK
1.1633320000,189,0xD5,0x72,Read,ACK
1.1633624000,189,0xD5,0xFF,Read,ACK
1.1633926000,189,0xD5,0xAF,Read,ACK
1.1634230000,189,0xD5,0xFF,Read,NAK
1.1826942000,191,0xD4,0x1E,Write,ACK
1.1827616000,192,0xD5,0x07,Read,NAK
1.1828292000,194,0xD4,0x28,Write,ACK
1.1828938000,195,0xD5,0xDE,Read,ACK
1.1829242000,195,0xD5,0x00,Read,ACK
1.1829546000,195,0xD5,0x52,Read,ACK
1.1829850000,195,0xD5,0xFF,Read,ACK
1.1830152000,195,0xD5,0x7E,Read,ACK
1.1830840000,195,0xD5,0x40,Read,NAK
1.1831504000,197,0xD4,0x20,Write,ACK
1.1832152000,198,0xD5,0xFC,Read,ACK
1.1832454000,198,0xD5,0xFB,Read,ACK
1.1832758000,198,0xD5,0x62,Read,ACK
1.1833062000,198,0xD5,0x00,Read,ACK
1.1833366000,198,0xD5,0x5C,Read,ACK
1.1833668000,198,0xD5,0xFF,Read,ACK
1.1833972000,198,0xD5,0xA9,Read,ACK
1.1834276000,198,0xD5,0xFF,Read,NAK
1.2026968000,200,0xD4,0x1E,Write,ACK
1.2027614000,201,0xD5,0x07,Read,NAK
1.2028280000,203,0xD4,0x28,Write,ACK
1.2028928000,204,0xD5,0xE2,Read,ACK
1.2029230000,204,0xD5,0x00,Read,ACK
1.2029534000,204,0xD5,0x52,Read,ACK
1.2029838000,204,0xD5,0xFF,Read,ACK
1.2030142000,204,0xD5,0x73,Read,ACK
1.2030892000,204,0xD5,0x40,Read,NAK
1.2031558000,206,0xD4,0x20,Write,ACK
1.2032206000,207,0xD5,0x06,Read,ACK
1.2032508000,207,0xD5,0xFC,Read,ACK
1.2032812000,207,0xD5,0x59,Read,ACK
1.2033116000,207,0xD5,0x00,Read,ACK
1.2033420000,207,0xD5,0x61,Read,ACK
1.2033724000,207,0xD5,0xFF,Read,ACK
1.2034026000,207,0xD5,0xAE,Read,ACK
1.2034330000,207,0xD5,0xFF,Read,NAK
1.2227010000,209,0xD4,0x1E,Write,ACK
1.2227658000,210,0xD5,0x07,Read,NAK
1.2228324000,212,0xD4,0x28,Write,ACK
1.2228972000,213,0xD5,0xE2,Read,ACK
1.2229276000,213,0xD5,0x00,Read,ACK
1.2229580000,213,0xD5,0x50,Read,ACK
1.2229884000,213,0xD5,0xFF,Read,ACK
1.2230186000,213,0xD5,0x78,Read,ACK
1.2230970000,213,0xD5,0x40,Read,NAK
1.2231722000,215,0xD4,0x20,Write,ACK
1.2232442000,216,0xD5,0xFC,Read,ACK
1.2232748000,216,0xD5,0xFB,Read,ACK
1.2233060000,216,0xD5,0x60,Read,ACK
1.2233370000,216,0xD5,0x00,Read,ACK
1.2233676000,216,0xD5,0x60,Read,ACK
1.2233984000,216,0xD5,0xFF,Read,ACK
1.2234286000,216,0xD5,0xB0,Read,ACK
1.2234594000,216,0xD5,0xFF,Read,NAK
1.2427060000,218,0xD4,0x1E,Write,ACK
1.2427736000,219,0xD5,0x07,Read,NAK
1.2428412000,221,0xD4,0x28,Write,ACK
1.2429060000,222,0xD5,0xE0,Read,ACK
1.2429364000,222,0xD5,0x00,Read,ACK
1.2429670000,222,0xD5,0x52,Read,ACK
1.2429974000,222,0xD5,0xFF,Read,ACK
1.2430278000,222,0xD5,0x7A,Read,ACK
1.2430996000,222,0xD5,0x40,Read,NAK
1.2431662000,224,0xD4,0x20,Write,ACK
1.2432310000,225,0xD5,0x0E,Read,ACK
1.2432614000,225,0xD5,0xFC,Read,ACK
1.2432918000,225,0xD5,0x5B,Read,ACK
1.2433222000,225,0xD5,0x00,Read,ACK
1.2433526000,225,0xD5,0x60,Read,ACK
1.2433832000,225,0xD5,0xFF,Read,ACK
1.2434134000,225,0xD5,0xB0,Read,ACK
1.2434438000,225,0xD5,0xFF,Read,NAK
1.2627134000,227,0xD4,0x1E,Write,ACK
1.2627782000,228,0xD5,0x07,Read,NAK
1.2628446000,230,0xD4,0x28,Write,ACK
1.2629094000,231,0xD5,0xE3,Read,ACK
1.2629398000,231,0xD5,0x00,Read,ACK
1.2629702000,231,0xD5,0x53,Read,ACK
1.2630006000,231,0xD5,0xFF,Read,ACK
1.2630308000,231,0xD5,0x76,Read,ACK
1.2631050000,231,0xD5,0x40,Read,NAK
1.2631714000,233,0xD4,0x20,Write,ACK
1.2632364000,234,0xD5,0x07,Read,ACK
1.2632668000,234,0xD5,0xFC,Read,ACK
1.2632970000,234,0xD5,0x6D,Read,ACK
1.2633274000,234,0xD5,0x00,Read,ACK
1.2633580000,234,0xD5,0x31,Read,ACK
1.2633884000,234,0xD5,0xFF,Read,ACK
1.2634186000,234,0xD5,0xAD,Read,ACK
1.2634490000,234,0xD5,0xFF,Read,NAK
1.2827186000,236,0xD4,0x1E,Write,ACK
1.2827862000,237,0xD5,0x07,Read,NAK
1.2828536000,239,0xD4,0x28,Write,ACK
1.2829184000,240,0xD5,0xE6,Read,ACK
1.2829486000,240,0xD5,0x00,Read,ACK
1.2829792000,240,0xD5,0x54,Read,ACK
1.2830096000,240,0xD5,0xFF,Read,ACK
1.2830398000,240,0xD5,0x72,Read,ACK
1.2831104000,240,0xD5,0x40,Read,NAK
1.2831768000,242,0xD4,0x20,Write,ACK
1.2832416000,243,0xD5,0x07,Read,ACK
1.2832720000,243,0xD5,0xFC,Read,ACK
1.2833022000,243,0xD5,0x64,Read,ACK
1.2833326000,243,0xD5,0x00,Read,ACK
1.2833630000,243,0xD5,0x37,Read,ACK
1.2833934000,243,0xD5,0xFF,Read,ACK
1.2834236000,243,0xD5,0xB5,Read,ACK
1.2834540000,243,0xD5,0xFF,Read,NAK
1.3027238000,245,0xD4,0x1E,Write,ACK
1.3027884000,246,0xD5,0x07,Read,NAK
1.3028548000,248,0xD4,0x28,Write,ACK
1.3029196000,249,0xD5,0xE3,Read,ACK
1.3029500000,249,0xD5,0x00,Read,ACK
1.3029804000,249,0xD5,0x58,Read,ACK
1.3030108000,249,0xD5,0xFF,Read,ACK
1.3030412000,249,0xD5,0x74,Read,ACK
1.3031156000,249,0xD5,0x40,Read,NAK
1.3031822000,251,0xD4,0x20,Write,ACK
1.3032468000,252,0xD5,0x14,Read,ACK
1.3032772000,252,0xD5,0xFC,Read,ACK
1.3033078000,252,0xD5,0x4F,Read,ACK
1.3033380000,252,0xD5,0x00,Read,ACK
1.3033684000,252,0xD5,0x6D,Read,ACK
1.3033988000,252,0xD5,0xFF,Read,ACK
1.3034292000,252,0xD5,0xB9,Read,ACK
1.3034594000,252,0xD5,0xFF,Read,NAK
1.3227188000,254,0xD4,0x1E,Write,ACK
1.3227866000,255,0xD5,0x07,Read,NAK
1.3228540000,257,0xD4,0x28,Write,ACK
1.3229188000,258,0xD5,0xDE,Read,ACK
1.3229492000,258,0xD5,0x00,Read,ACK
1.3229798000,258,0xD5,0x5C,Read,ACK
1.3230100000,258,0xD5,0xFF,Read,ACK
1.3230406000,258,0xD5,0x74,Read,ACK
1.3231238000,258,0xD5,0x40,Read,NAK
1.3231974000,260,0xD4,0x20,Write,ACK
1.3232702000,261,0xD5,0x12,Read,ACK
1.3233008000,261,0xD5,0xFC,Read,ACK
1.3233318000,261,0xD5,0x61,Read,ACK
1.3233624000,261,0xD5,0x00,Read,ACK
1.3233932000,261,0xD5,0x5B,Read,ACK
1.3234242000,261,0xD5,0xFF,Read,ACK
1.3234548000,261,0xD5,0xB2,Read,ACK
1.3234852000,261,0xD5,0xFF,Read,NAK
1.3427310000,263,0xD4,0x1E,Write,ACK
1.3427968000,264,0xD5,0x07,Read,NAK
1.3428632000,266,0xD4,0x28,Write,ACK
1.3429292000,267,0xD5,0xDC,Read,ACK
1.3429594000,267,0xD5,0x00,Read,ACK
1.3429900000,267,0xD5,0x54,Read,ACK
1.3430204000,267,0xD5,0xFF,Read,ACK
1.3430506000,267,0xD5,0x80,Read,ACK
1.3431264000,267,0xD5,0x40,Read,NAK
1.3431930000,269,0xD4,0x20,Write,ACK
1.3432578000,270,0xD5,0xFC,Read,ACK
1.3432882000,270,0xD5,0xFB,Read,ACK
1.3433186000,270,0xD5,0x57,Read,ACK
1.3433490000,270,0xD5,0x00,Read,ACK
1.3433794000,270,0xD5,0x5E,Read,ACK
1.3434098000,270,0xD5,0xFF,Read,ACK
1.3434400000,270,0xD5,0xB2,Read,ACK
1.3434706000,270,0xD5,0xFF,Read,NAK
1.3627426000,272,0xD4,0x1E,Write,ACK
1.3628102000,273,0xD5,0x07,Read,NAK
1.3628768000,275,0xD4,0x28,Write,ACK
1.3629416000,276,0xD5,0xE0,Read,ACK
1.3629720000,276,0xD5,0x00,Read,ACK
1.3630024000,276,0xD5,0x55,Read,ACK
1.3630328000,276,0xD5,0xFF,Read,ACK
1.3630630000,276,0xD5,0x7F,Read,ACK
1.3631318000,276,0xD5,0x40,Read,NAK
1.3631982000,278,0xD4,0x20,Write,ACK
1.3632632000,279,0xD5,0x06,Read,ACK
1.3632936000,279,0xD5,0xFC,Read,ACK
1.3633238000,279,0xD5,0x60,Read,ACK
1.3633542000,279,0xD5,0x00,Read,ACK
1.3633846000,279,0xD5,0x57,Read,ACK
1.3634150000,279,0xD5,0xFF,Read,ACK
1.3634452000,279,0xD5,0xB4,Read,ACK
1.3634756000,279,0xD5,0xFF,Read,NAK
1.3827424000,281,0xD4,0x1E,Write,ACK
1.3828070000,282,0xD5,0x07,Read,NAK
1.3828734000,284,0xD4,0x28,Write,ACK
1.3829384000,285,0xD5,0xE1,Read,ACK
1.3829688000,285,0xD5,0x00,Read,ACK
1.3829992000,285,0xD5,0x53,Read,ACK
1.3830296000,285,0xD5,0xFF,Read,ACK
1.3830600000,285,0xD5,0x7A,Read,ACK
1.3831370000,285,0xD5,0x40,Read,NAK
1.3832036000,287,0xD4,0x20,Write,ACK
1.3832684000,288,0xD5,0x0D,Read,ACK
1.3832988000,288,0xD5,0xFC,Read,ACK
1.3833292000,288,0xD5,0x4C,Read,ACK
1.3833596000,288,0xD5,0x00,Read,ACK
1.3833900000,288,0xD5,0x6C,Read,ACK
1.3834204000,288,0xD5,0xFF,Read,ACK
1.3834506000,288,0xD5,0xB2,Read,ACK
1.3834810000,288,0xD5,0xFF,Read,NAK
1.4027496000,290,0xD4,0x1E,Write,ACK
1.4028144000,291,0xD5,0x07,Read,NAK
1.4028808000,293,0xD4,0x28,Write,ACK
1.4029458000,294,0xD5,0xE2,Read,ACK
1.4029762000,294,0xD5,0x00,Read,ACK
1.4030066000,294,0xD5,0x55,Read,ACK
1.4030370000,294,0xD5,0xFF,Read,ACK
1.4030672000,294,0xD5,0x7D,Read,ACK
1.4031424000,294,0xD5,0x40,Read,NAK
1.4032088000,296,0xD4,0x20,Write,ACK
1.4032736000,297,0xD5,0x0F,Read,ACK
1.4033040000,297,0xD5,0xFC,Read,ACK
1.4033344000,297,0xD5,0x59,Read,ACK
1.4033648000,297,0xD5,0x00,Read,ACK
1.4033954000,297,0xD5,0x59,Read,ACK
1.4034258000,297,0xD5,0xFF,Read,ACK
1.4034562000,297,0xD5,0xB0,Read,ACK
1.4034866000,297,0xD5,0xFF,Read,NAK
1.4227566000,299,0xD4,0x1E,Write,ACK
1.4228242000,300,0xD5,0x07,Read,NAK
1.4228906000,302,0xD4,0x28,Write,ACK
1.4229556000,303,0xD5,0xE4,Read,ACK
1.4229858000,303,0xD5,0x00,Read,ACK
1.4230164000,303,0xD5,0x58,Read,ACK
1.4230468000,303,0xD5,0xFF,Read,ACK
1.4230770000,303,0xD5,0x7A,Read,ACK
1.4231504000,303,0xD5,0x40,Read,NAK
1.4232244000,305,0xD4,0x20,Write,ACK
1.4232966000,306,0xD5,0x16,Read,ACK
1.4233272000,306,0xD5,0xFC,Read,ACK
1.4233582000,306,0xD5,0x57,Read,ACK
1.4233888000,306,0xD5,0x00,Read,ACK
1.4234194000,306,0xD5,0x62,Read,ACK
1.4234508000,306,0xD5,0xFF,Read,ACK
1.4234814000,306,0xD5,0xAA,Read,ACK
1.4235120000,306,0xD5,0xFF,Read,NAK
1.4427578000,308,0xD4,0x1E,Write,ACK
1.4428234000,309,0xD5,0x07,Read,NAK
1.4428900000,311,0xD4,0x28,Write,ACK
1.4429556000,312,0xD5,0xE6,Read,ACK
1.4429860000,312,0xD5,0x00,Read,ACK
1.4430166000,312,0xD5,0x54,Read,ACK
1.4430470000,312,0xD5,0xFF,Read,ACK
1.4430772000,312,0xD5,0x7A,Read,ACK
1.4431528000,312,0xD5,0x40,Read,NAK
1.4432194000,314,0xD4,0x20,Write,ACK
1.4432842000,315,0xD5,0x07,Read,ACK
1.4433146000,315,0xD5,0xFC,Read,ACK
1.4433450000,315,0xD5,0x5D,Read,ACK
1.4433754000,315,0xD5,0x00,Read,ACK
1.4434060000,315,0xD5,0x65,Read,ACK
1.4434362000,315,0xD5,0xFF,Read,ACK
1.4434666000,315,0xD5,0xB2,Read,ACK
1.4434970000,315,0xD5,0xFF,Read,NAK
1.4627690000,317,0xD4,0x1E,Write,ACK
1.4628368000,318,0xD5,0x07,Read,NAK
1.4629032000,320,0xD4,0x28,Write,ACK
1.4629680000,321,0xD5,0xE6,Read,ACK
1.4629982000,321,0xD5,0x00,Read,ACK
1.4630288000,321,0xD5,0x54,Read,ACK
1.4630592000,321,0xD5,0xFF,Read,ACK
1.4630894000,321,0xD5,0x79,Read,ACK
1.4631666000,321,0xD5,0x40,Read,NAK
1.4632332000,323,0xD4,0x20,Write,ACK
1.4632980000,324,0xD5,0x18,Read,ACK
1.4633286000,324,0xD5,0xFC,Read,ACK
1.4633588000,324,0xD5,0x61,Read,ACK
1.4633892000,324,0xD5,0x00,Read,ACK
1.4634196000,324,0xD5,0x59,Read,ACK
1.4634500000,324,0xD5,0xFF,Read,ACK
1.4634804000,324,0xD5,0xAB,Read,ACK
1.4635108000,324,0xD5,0xFF,Read,NAK
1.4827694000,326,0xD4,0x1E,Write,ACK
1.4828342000,327,0xD5,0x07,Read,NAK
1.4829006000,329,0xD4,0x28,Write,ACK
1.4829654000,330,0xD5,0xE5,Read,ACK
1.4829958000,330,0xD5,0x00,Read,ACK
1.4830262000,330,0xD5,0x56,Read,ACK
1.4830566000,330,0xD5,0xFF,Read,ACK
1.4830868000,330,0xD5,0x77,Read,ACK
1.4831636000,330,0xD5,0x40,Read,NAK
1.4832302000,332,0xD4,0x20,Write,ACK
1.4832950000,333,0xD5,0x09,Read,ACK
1.4833254000,333,0xD5,0xFC,Read,ACK
1.4833558000,333,0xD5,0x5D,Read,ACK
1.4833860000,333,0xD5,0x00,Read,ACK
1.4834166000,333,0xD5,0x61,Read,ACK
1.4834470000,333,0xD5,0xFF,Read,ACK
1.4834774000,333,0xD5,0xA6,Read,ACK
1.4835076000,333,0xD5,0xFF,Read,NAK
1.5027814000,335,0xD4,0x1E,Write,ACK
1.5028490000,336,0xD5,0x07,Read,NAK
1.5029154000,338,0xD4,0x28,Write,ACK
1.5029802000,339,0xD5,0xE3,Read,ACK
1.5030106000,339,0xD5,0x00,Read,ACK
1.5030410000,339,0xD5,0x58,Read,ACK
1.5030714000,339,0xD5,0xFF,Read,ACK
1.5031016000,339,0xD5,0x76,Read,ACK
1.5031690000,339,0xD5,0x40,Read,NAK
1.5032354000,341,0xD4,0x20,Write,ACK
1.5033002000,342,0xD5,0x12,Read,ACK
1.5033306000,342,0xD5,0xFC,Read,ACK
1.5033610000,342,0xD5,0x5B,Read,ACK
1.5033912000,342,0xD5,0x00,Read,ACK
1.5034216000,342,0xD5,0x66,Read,ACK
1.5034520000,342,0xD5,0xFF,Read,ACK
1.5034822000,342,0xD5,0xA3,Read,ACK
1.5035126000,342,0xD5,0xFF,Read,NAK
1.5227802000,344,0xD4,0x1E,Write,ACK
1.5228448000,345,0xD5,0x07,Read,NAK
1.5229112000,347,0xD4,0x28,Write,ACK
1.5229760000,348,0xD5,0xE4,Read,ACK
1.5230064000,348,0xD5,0x00,Read,ACK
1.5230370000,348,0xD5,0x59,Read,ACK
1.5230674000,348,0xD5,0xFF,Read,ACK
1.5230976000,348,0xD5,0x77,Read,ACK
1.5231770000,348,0xD5,0x40,Read,NAK
1.5232510000,350,0xD4,0x20,Write,ACK
1.5233230000,351,0xD5,0x0F,Read,ACK
1.5233536000,351,0xD5,0xFC,Read,ACK
1.5233846000,351,0xD5,0x59,Read,ACK
1.5234156000,351,0xD5,0x00,Read,ACK
1.5234462000,351,0xD5,0x62,Read,ACK
1.5234768000,351,0xD5,0xFF,Read,ACK
1.5235074000,351,0xD5,0xA9,Read,ACK
1.5235380000,351,0xD5,0xFF,Read,NAK
1.5427854000,353,0xD4,0x1E,Write,ACK
1.5428542000,354,0xD5,0x07,Read,NAK
1.5429216000,356,0xD4,0x28,Write,ACK
1.5429864000,357,0xD5,0xE4,Read,ACK
1.5430168000,357,0xD5,0x00,Read,ACK
1.5430472000,357,0xD5,0x56,Read,ACK
1.5430776000,357,0xD5,0xFF,Read,ACK
1.5431080000,357,0xD5,0x78,Read,ACK
1.5431794000,357,0xD5,0x40,Read,NAK
1.5432460000,359,0xD4,0x20,Write,ACK
1.5433108000,360,0xD5,0x14,Read,ACK
1.5433412000,360,0xD5,0xFC,Read,ACK
1.5433716000,360,0xD5,0x58,Read,ACK
1.5434020000,360,0xD5,0x00,Read,ACK
1.5434324000,360,0xD5,0x6D,Read,ACK
1.5434630000,360,0xD5,0xFF,Read,ACK
1.5434932000,360,0xD5,0xAC,Read,ACK
1.5435236000,360,0xD5,0xFF,Read,NAK
1.5627926000,362,0xD4,0x1E,Write,ACK
1.5628574000,363,0xD5,0x07,Read,NAK
1.5629238000,365,0xD4,0x28,Write,ACK
1.5629886000,366,0xD5,0xE2,Read,ACK
1.5630190000,366,0xD5,0x00,Read,ACK
1.5630496000,366,0xD5,0x54,Read,ACK
1.5630800000,366,0xD5,0xFF,Read,ACK
1.5631102000,366,0xD5,0x7D,Read,ACK
1.5631844000,366,0xD5,0x40,Read,NAK
1.5632510000,368,0xD4,0x20,Write,ACK
1.5633158000,369,0xD5,0x14,Read,ACK
1.5633462000,369,0xD5,0xFC,Read,ACK
1.5633766000,369,0xD5,0x63,Read,ACK
1.5634068000,369,0xD5,0x00,Read,ACK
1.5634374000,369,0xD5,0x6C,Read,ACK
1.5634678000,369,0xD5,0xFF,Read,ACK
1.5634982000,369,0xD5,0xA8,Read,ACK
1.5635286000,369,0xD5,0xFF,Read,NAK
1.5827950000,371,0xD4,0x1E,Write,ACK
1.5828600000,372,0xD5,0x07,Read,NAK
1.5829264000,374,0xD4,0x28,Write,ACK
1.5829912000,375,0xD5,0xE5,Read,ACK
1.5830216000,375,0xD5,0x00,Read,ACK
1.5830520000,375,0xD5,0x54,Read,ACK
1.5830824000,375,0xD5,0xFF,Read,ACK
1.5831128000,375,0xD5,0x79,Read,ACK
1.5831898000,375,0xD5,0x40,Read,NAK
1.5832564000,377,0xD4,0x20,Write,ACK
1.5833212000,378,0xD5,0x14,Read,ACK
1.5833516000,378,0xD5,0xFC,Read,ACK
1.5833818000,378,0xD5,0x6E,Read,ACK
1.5834122000,378,0xD5,0x00,Read,ACK
1.5834426000,378,0xD5,0x5B,Read,ACK
1.5834730000,378,0xD5,0xFF,Read,ACK
1.5835034000,378,0xD5,0xAC,Read,ACK
1.5835336000,378,0xD5,0xFF,Read,NAK
1.6028042000,380,0xD4,0x1E,Write,ACK
1.6028716000,381,0xD5,0x07,Read,NAK
1.6029392000,383,0xD4,0x28,Write,ACK
1.6030038000,384,0xD5,0xE2,Read,ACK
1.6030342000,384,0xD5,0x00,Read,ACK
1.6030646000,384,0xD5,0x53,Read,ACK
1.6030950000,384,0xD5,0xFF,Read,ACK
1.6031252000,384,0xD5,0x7A,Read,ACK
1.6031996000,384,0xD5,0x40,Read,NAK
1.6032660000,386,0xD4,0x20,Write,ACK
1.6033308000,387,0xD5,0x18,Read,ACK
1.6033612000,387,0xD5,0xFC,Read,ACK
1.6033914000,387,0xD5,0x61,Read,ACK
1.6034218000,387,0xD5,0x00,Read,ACK
1.6034522000,387,0xD5,0x65,Read,ACK
1.6034826000,387,0xD5,0xFF,Read,ACK
1.6035128000,387,0xD5,0xAD,Read,ACK
1.6035430000,387,0xD5,0xFF,Read,NAK
1.6228064000,389,0xD4,0x1E,Write,ACK
1.6228712000,390,0xD5,0x07,Read,NAK
1.6229378000,392,0xD4,0x28,Write,ACK
1.6230026000,393,0xD5,0xE1,Read,ACK
1.6230328000,393,0xD5,0x00,Read,ACK
1.6230634000,393,0xD5,0x54,Read,ACK
1.6230938000,393,0xD5,0xFF,Read,ACK
1.6231240000,393,0xD5,0x7C,Read,ACK
1.6232074000,393,0xD5,0x40,Read,NAK
1.6232820000,395,0xD4,0x20,Write,ACK
1.6233542000,396,0xD5,0x16,Read,ACK
1.6233850000,396,0xD5,0xFC,Read,ACK
1.6234160000,396,0xD5,0x5D,Read,ACK
1.6234466000,396,0xD5,0x00,Read,ACK
1.6234772000,396,0xD5,0x61,Read,ACK
1.6235080000,396,0xD5,0xFF,Read,ACK
1.6235384000,396,0xD5,0xB4,Read,ACK
1.6235690000,396,0xD5,0xFF,Read,NAK
1.6428114000,398,0xD4,0x1E,Write,ACK
1.6428790000,399,0xD5,0x07,Read,NAK
1.6429466000,401,0xD4,0x28,Write,ACK
1.6430114000,402,0xD5,0xE2,Read,ACK
1.6430418000,402,0xD5,0x00,Read,ACK
1.6430722000,402,0xD5,0x52,Read,ACK
1.6431028000,402,0xD5,0xFF,Read,ACK
1.6431330000,402,0xD5,0x7D,Read,ACK
1.6432060000,402,0xD5,0x40,Read,NAK
1.6432726000,404,0xD4,0x20,Write,ACK
1.6433374000,405,0xD5,0x18,Read,ACK
1.6433678000,405,0xD5,0xFC,Read,ACK
1.6433982000,405,0xD5,0x5B,Read,ACK
1.6434286000,405,0xD5,0x00,Read,ACK
1.6434592000,405,0xD5,0x5F,Read,ACK
1.6434896000,405,0xD5,0xFF,Read,ACK
1.6435198000,405,0xD5,0xB0,Read,ACK
1.6435502000,405,0xD5,0xFF,Read,NAK
1.6628188000,407,0xD4,0x1E,Write,ACK
1.6628834000,408,0xD5,0x07,Read,NAK
1.6629500000,410,0xD4,0x28,Write,ACK
1.6630148000,411,0xD5,0xE3,Read,ACK
1.6630452000,411,0xD5,0x00,Read,ACK
1.6630758000,411,0xD5,0x52,Read,ACK
1.6631062000,411,0xD5,0xFF,Read,ACK
1.6631364000,411,0xD5,0x7A,Read,ACK
1.6632112000,411,0xD5,0x40,Read,NAK
1.6632776000,413,0xD4,0x20,Write,ACK
1.6633424000,414,0xD5,0x1A,Read,ACK
1.6633730000,414,0xD5,0xFC,Read,ACK
1.6634032000,414,0xD5,0x5C,Read,ACK
1.6634336000,414,0xD5,0x00,Read,ACK
1.6634640000,414,0xD5,0x5D,Read,ACK
1.6634944000,414,0xD5,0xFF,Read,ACK
1.6635246000,414,0xD5,0xAE,Read,ACK
1.6635550000,414,0xD5,0xFF,Read,NAK
1.6828260000,416,0xD4,0x1E,Write,ACK
1.6828936000,417,0xD5,0x07,Read,NAK
1.6829608000,419,0xD4,0x28,Write,ACK
1.6830258000,420,0xD5,0xE2,Read,ACK
1.6830560000,420,0xD5,0x00,Read,ACK
1.6830864000,420,0xD5,0x54,Read,ACK
1.6831168000,420,0xD5,0xFF,Read,ACK
1.6831470000,420,0xD5,0x7A,Read,ACK
1.6832166000,420,0xD5,0x40,Read,NAK
1.6832830000,422,0xD4,0x20,Write,ACK
1.6833476000,423,0xD5,0x23,Read,ACK
1.6833780000,423,0xD5,0xFC,Read,ACK
1.6834084000,423,0xD5,0x5E,Read,ACK
1.6834388000,423,0xD5,0x00,Read,ACK
1.6834692000,423,0xD5,0x60,Read,ACK
1.6834994000,423,0xD5,0xFF,Read,ACK
1.6835298000,423,0xD5,0xB2,Read,ACK
1.6835600000,423,0xD5,0xFF,Read,NAK
1.7028292000,425,0xD4,0x1E,Write,ACK
1.7028940000,426,0xD5,0x07,Read,NAK
1.7029604000,428,0xD4,0x28,Write,ACK
1.7030252000,429,0xD5,0xDC,Read,ACK
1.7030556000,429,0xD5,0x00,Read,ACK
1.7030860000,429,0xD5,0x54,Read,ACK
1.7031164000,429,0xD5,0xFF,Read,ACK
1.7031464000,429,0xD5,0x7C,Read,ACK
1.7032216000,429,0xD5,0x40,Read,NAK
1.7032880000,431,0xD4,0x20,Write,ACK
1.7033528000,432,0xD5,0x1C,Read,ACK
1.7033832000,432,0xD5,0xFC,Read,ACK
1.7034136000,432,0xD5,0x5A,Read,ACK
1.7034440000,432,0xD5,0x00,Read,ACK
1.7034744000,432,0xD5,0x64,Read,ACK
1.7035048000,432,0xD5,0xFF,Read,ACK
1.7035350000,432,0xD5,0xB2,Read,ACK
1.7035654000,432,0xD5,0xFF,Read,NAK
1.7228244000,434,0xD4,0x1E,Write,ACK
1.7228920000,435,0xD5,0x07,Read,NAK
1.7229594000,437,0xD4,0x28,Write,ACK
1.7230244000,438,0xD5,0xDB,Read,ACK
1.7230548000,438,0xD5,0x00,Read,ACK
1.7230852000,438,0xD5,0x52,Read,ACK
1.7231156000,438,0xD5,0xFF,Read,ACK
1.7231460000,438,0xD5,0x78,Read,ACK
1.7232292000,438,0xD5,0x40,Read,NAK
1.7233006000,440,0xD4,0x20,Write,ACK
1.7233732000,441,0xD5,0x22,Read,ACK
1.7234040000,441,0xD5,0xFC,Read,ACK
1.7234350000,441,0xD5,0x5A,Read,ACK
1.7234660000,441,0xD5,0x00,Read,ACK
1.7235002000,441,0xD5,0x5C,Read,ACK
1.7235308000,441,0xD5,0xFF,Read,ACK
1.7235628000,441,0xD5,0xAB,Read,ACK
1.7235934000,441,0xD5,0xFF,Read,NAK
1.7428438000,443,0xD4,0x1E,Write,ACK
1.7429292000,444,0xD5,0x07,Read,NAK
1.7429978000,446,0xD4,0x28,Write,ACK
1.7430624000,447,0xD5,0xDD,Read,ACK
1.7430928000,447,0xD5,0x00,Read,ACK
1.7431234000,447,0xD5,0x51,Read,ACK
1.7431538000,447,0xD5,0xFF,Read,ACK
1.7432320000,447,0xD5,0x76,Read,ACK
1.7432624000,447,0xD5,0x40,Read,NAK
1.7433288000,449,0xD4,0x20,Write,ACK
1.7433936000,450,0xD5,0x19,Read,ACK
1.7434240000,450,0xD5,0xFC,Read,ACK
1.7434546000,450,0xD5,0x56,Read,ACK
1.7434850000,450,0xD5,0x00,Read,ACK
1.7435154000,450,0xD5,0x5E,Read,ACK
1.7435460000,450,0xD5,0xFF,Read,ACK
1.7435762000,450,0xD5,0xAD,Read,ACK
1.7436066000,450,0xD5,0xFF,Read,NAK
1.7628522000,452,0xD4,0x1E,Write,ACK
1.7629216000,453,0xD5,0x07,Read,NAK
1.7629910000,455,0xD4,0x28,Write,ACK
1.7630560000,456,0xD5,0xE0,Read,ACK
1.7630864000,456,0xD5,0x00,Read,ACK
1.7631168000,456,0xD5,0x52,Read,ACK
1.7631472000,456,0xD5,0xFF,Read,ACK
1.7631776000,456,0xD5,0x7E,Read,ACK
1.7632414000,456,0xD5,0x40,Read,NAK
1.7633080000,458,0xD4,0x20,Write,ACK
1.7633728000,459,0xD5,0x1C,Read,ACK
1.7634032000,459,0xD5,0xFC,Read,ACK
1.7634336000,459,0xD5,0x55,Read,ACK
1.7634640000,459,0xD5,0x00,Read,ACK
1.7634944000,459,0xD5,0x67,Read,ACK
1.7635248000,459,0xD5,0xFF,Read,ACK
1.7635552000,459,0xD5,0xB3,Read,ACK
1.7635856000,459,0xD5,0xFF,Read,NAK
1.7828526000,461,0xD4,0x1E,Write,ACK
1.7829202000,462,0xD5,0x07,Read,NAK
1.7829866000,464,0xD4,0x28,Write,ACK
1.7830514000,465,0xD5,0xE4,Read,ACK
1.7830818000,465,0xD5,0x00,Read,ACK
1.7831122000,465,0xD5,0x52,Read,ACK
1.7831426000,465,0xD5,0xFF,Read,ACK
1.7831728000,465,0xD5,0x7A,Read,ACK
1.7832784000,465,0xD5,0x40,Read,NAK
1.7833448000,467,0xD4,0x20,Write,ACK
1.7834094000,468,0xD5,0x21,Read,ACK
1.7834398000,468,0xD5,0xFC,Read,ACK
1.7834704000,468,0xD5,0x63,Read,ACK
1.7835008000,468,0xD5,0x00,Read,ACK
1.7835314000,468,0xD5,0x62,Read,ACK
1.7835618000,468,0xD5,0xFF,Read,ACK
1.7835920000,468,0xD5,0xB4,Read,ACK
1.7836224000,468,0xD5,0xFF,Read,NAK
1.8028546000,470,0xD4,0x1E,Write,ACK
1.8029194000,471,0xD5,0x07,Read,NAK
1.8029860000,473,0xD4,0x28,Write,ACK
1.8030506000,474,0xD5,0xE4,Read,ACK
1.8030810000,474,0xD5,0x00,Read,ACK
1.8031114000,474,0xD5,0x52,Read,ACK
1.8031418000,474,0xD5,0xFF,Read,ACK
1.8031720000,474,0xD5,0x77,Read,ACK
1.8032478000,474,0xD5,0x40,Read,NAK
1.8033142000,476,0xD4,0x20,Write,ACK
1.8033790000,477,0xD5,0x28,Read,ACK
1.8034094000,477,0xD5,0xFC,Read,ACK
1.8034398000,477,0xD5,0x5E,Read,ACK
1.8034702000,477,0xD5,0x00,Read,ACK
1.8035006000,477,0xD5,0x66,Read,ACK
1.8035308000,477,0xD5,0xFF,Read,ACK
1.8035612000,477,0xD5,0xAD,Read,ACK
1.8035916000,477,0xD5,0xFF,Read,NAK
1.8228602000,479,0xD4,0x1E,Write,ACK
1.8229278000,480,0xD5,0x07,Read,NAK
1.8229942000,482,0xD4,0x28,Write,ACK
1.8230590000,483,0xD5,0xE0,Read,ACK
1.8230894000,483,0xD5,0x00,Read,ACK
1.8231200000,483,0xD5,0x52,Read,ACK
1.8231502000,483,0xD5,0xFF,Read,ACK
1.8231806000,483,0xD5,0x7E,Read,ACK
1.8232558000,483,0xD5,0x40,Read,NAK
1.8233276000,485,0xD4,0x20,Write,ACK
1.8234008000,486,0xD5,0x1B,Read,ACK
1.8234318000,486,0xD5,0xFC,Read,ACK
1.8234624000,486,0xD5,0x5D,Read,ACK
1.8234936000,486,0xD5,0x00,Read,ACK
1.8235242000,486,0xD5,0x5F,Read,ACK
1.8235548000,486,0xD5,0xFF,Read,ACK
1.8235854000,486,0xD5,0xAD,Read,ACK
1.8236160000,486,0xD5,0xFF,Read,NAK
1.8428616000,488,0xD4,0x1E,Write,ACK
1.8429404000,489,0xD5,0x07,Read,NAK
1.8430068000,491,0xD4,0x28,Write,ACK
1.8430728000,492,0xD5,0xE0,Read,ACK
1.8431032000,492,0xD5,0x00,Read,ACK
1.8431336000,492,0xD5,0x52,Read,ACK
1.8431640000,492,0xD5,0xFF,Read,ACK
1.8431942000,492,0xD5,0x7C,Read,ACK
1.8432584000,492,0xD5,0x40,Read,NAK
1.8433250000,494,0xD4,0x20,Write,ACK
1.8433898000,495,0xD5,0x1F,Read,ACK
1.8434202000,495,0xD5,0xFC,Read,ACK
1.8434506000,495,0xD5,0x68,Read,ACK
1.8434810000,495,0xD5,0x00,Read,ACK
1.8435114000,495,0xD5,0x5B,Read,ACK
1.8435418000,495,0xD5,0xFF,Read,ACK
1.8435722000,495,0xD5,0xAA,Read,ACK
1.8436024000,495,0xD5,0xFF,Read,NAK
1.8628764000,497,0xD4,0x1E,Write,ACK
1.8629440000,498,0xD5,0x07,Read,NAK
1.8630106000,500,0xD4,0x28,Write,ACK
1.8630754000,501,0xD5,0xE2,Read,ACK
1.8631058000,501,0xD5,0x00,Read,ACK
1.8631362000,501,0xD5,0x50,Read,ACK
1.8631666000,501,0xD5,0xFF,Read,ACK
1.8631970000,501,0xD5,0x7B,Read,ACK
1.8632638000,501,0xD5,0x40,Read,NAK
1.8633302000,503,0xD4,0x20,Write,ACK
1.8633950000,504,0xD5,0x1C,Read,ACK
1.8634256000,504,0xD5,0xFC,Read,ACK
1.8634560000,504,0xD5,0x66,Read,ACK
1.8634864000,504,0xD5,0x00,Read,ACK
1.8635168000,504,0xD5,0x67,Read,ACK
1.8635472000,504,0xD5,0xFF,Read,ACK
1.8635776000,504,0xD5,0xAF,Read,ACK
1.8636078000,504,0xD5,0xFF,Read,NAK
1.8828748000,506,0xD4,0x1E,Write,ACK
1.8829396000,507,0xD5,0x07,Read,NAK
1.8830062000,509,0xD4,0x28,Write,ACK
1.8830710000,510,0xD5,0xE1,Read,ACK
1.8831014000,510,0xD5,0x00,Read,ACK
1.8831318000,510,0xD5,0x54,Read,ACK
1.8831622000,510,0xD5,0xFF,Read,ACK
1.8831926000,510,0xD5,0x7A,Read,ACK
1.8832736000,510,0xD5,0x40,Read,NAK
1.8833402000,512,0xD4,0x20,Write,ACK
1.8834050000,513,0xD5,0x14,Read,ACK
1.8834354000,513,0xD5,0xFC,Read,ACK
1.8834658000,513,0xD5,0x58,Read,ACK
1.8834962000,513,0xD5,0x00,Read,ACK
1.8835266000,513,0xD5,0x5F,Read,ACK
1.8835570000,513,0xD5,0xFF,Read,ACK
1.8835872000,513,0xD5,0xB2,Read,ACK
1.8836174000,513,0xD5,0xFF,Read,NAK
1.9028868000,515,0xD4,0x1E,Write,ACK
1.9029544000,516,0xD5,0x07,Read,NAK
1.9030208000,518,0xD4,0x28,Write,ACK
1.9030856000,519,0xD5,0xE1,Read,ACK
1.9031160000,519,0xD5,0x00,Read,ACK
1.9031464000,519,0xD5,0x55,Read,ACK
1.9031766000,519,0xD5,0xFF,Read,ACK
1.9032070000,519,0xD5,0x7C,Read,ACK
1.9032746000,519,0xD5,0x40,Read,NAK
1.9033410000,521,0xD4,0x20,Write,ACK
1.9034058000,522,0xD5,0x16,Read,ACK
1.9034360000,522,0xD5,0xFC,Read,ACK
1.9034664000,522,0xD5,0x56,Read,ACK
1.9034968000,522,0xD5,0x00,Read,ACK
1.9035272000,522,0xD5,0x60,Read,ACK
1.9035576000,522,0xD5,0xFF,Read,ACK
1.9035878000,522,0xD5,0xB4,Read,ACK
1.9036182000,522,0xD5,0xFF,Read,NAK
1.9228836000,524,0xD4,0x1E,Write,ACK
1.9229484000,525,0xD5,0x07,Read,NAK
1.9230150000,527,0xD4,0x28,Write,ACK
1.9230798000,528,0xD5,0xE0,Read,ACK
1.9231102000,528,0xD5,0x00,Read,ACK
1.9231406000,528,0xD5,0x55,Read,ACK
1.9231710000,528,0xD5,0xFF,Read,ACK
1.9232014000,528,0xD5,0x7A,Read,ACK
1.9232826000,528,0xD5,0x40,Read,NAK
1.9233578000,530,0xD4,0x20,Write,ACK
1.9234298000,531,0xD5,0x23,Read,ACK
1.9234604000,531,0xD5,0xFC,Read,ACK
1.9234914000,531,0xD5,0x52,Read,ACK
1.9235228000,531,0xD5,0x00,Read,ACK
1.9235534000,531,0xD5,0x5C,Read,ACK
1.9235848000,531,0xD5,0xFF,Read,ACK
1.9236154000,531,0xD5,0xBB,Read,ACK
1.9236460000,531,0xD5,0xFF,Read,NAK
1.9428892000,533,0xD4,0x1E,Write,ACK
1.9429548000,534,0xD5,0x07,Read,NAK
1.9430212000,536,0xD4,0x28,Write,ACK
1.9430870000,537,0xD5,0xE0,Read,ACK
1.9431174000,537,0xD5,0x00,Read,ACK
1.9431480000,537,0xD5,0x57,Read,ACK
1.9431782000,537,0xD5,0xFF,Read,ACK
1.9432086000,537,0xD5,0x72,Read,ACK
1.9432984000,537,0xD5,0x40,Read,NAK
1.9433648000,539,0xD4,0x20,Write,ACK
1.9434298000,540,0xD5,0x2A,Read,ACK
1.9434602000,540,0xD5,0xFC,Read,ACK
1.9434904000,540,0xD5,0x63,Read,ACK
1.9435208000,540,0xD5,0x00,Read,ACK
1.9435514000,540,0xD5,0x63,Read,ACK
1.9435818000,540,0xD5,0xFF,Read,ACK
1.9436120000,540,0xD5,0xBC,Read,ACK
1.9436424000,540,0xD5,0xFF,Read,NAK
1.9629000000,542,0xD4,0x1E,Write,ACK
1.9629678000,543,0xD5,0x07,Read,NAK
1.9630342000,545,0xD4,0x28,Write,ACK
1.9630990000,546,0xD5,0xE2,Read,ACK
1.9631294000,546,0xD5,0x00,Read,ACK
1.9631600000,546,0xD5,0x58,Read,ACK
1.9631902000,546,0xD5,0xFF,Read,ACK
1.9632206000,546,0xD5,0x77,Read,ACK
1.9632910000,546,0xD5,0x40,Read,NAK
1.9633576000,548,0xD4,0x20,Write,ACK
1.9634226000,549,0xD5,0x2A,Read,ACK
1.9634528000,549,0xD5,0xFC,Read,ACK
1.9634832000,549,0xD5,0x63,Read,ACK
1.9635136000,549,0xD5,0x00,Read,ACK
1.9635442000,549,0xD5,0x6F,Read,ACK
1.9635746000,549,0xD5,0xFF,Read,ACK
1.9636048000,549,0xD5,0xB4,Read,ACK
1.9636352000,549,0xD5,0xFF,Read,NAK
1.9829004000,551,0xD4,0x1E,Write,ACK
1.9829652000,552,0xD5,0x07,Read,NAK
1.9830316000,554,0xD4,0x28,Write,ACK
1.9830966000,555,0xD5,0xE2,Read,ACK
1.9831270000,555,0xD5,0x00,Read,ACK
1.9831576000,555,0xD5,0x54,Read,ACK
1.9831880000,555,0xD5,0xFF,Read,ACK
1.9832182000,555,0xD5,0x80,Read,ACK
1.9833138000,555,0xD5,0x40,Read,NAK
1.9833802000,557,0xD4,0x20,Write,ACK
1.9834450000,558,0xD5,0x1E,Read,ACK
1.9834754000,558,0xD5,0xFC,Read,ACK
1.9835056000,558,0xD5,0x59,Read,ACK
1.9835360000,558,0xD5,0x00,Read,ACK
1.9835666000,558,0xD5,0x6D,Read,ACK
1.9835968000,558,0xD5,0xFF,Read,ACK
1.9836272000,558,0xD5,0xB2,Read,ACK
1.9836576000,558,0xD5,0xFF,Read,NAK
2.0029106000,560,0xD4,0x1E,Write,ACK
2.0029782000,561,0xD5,0x07,Read,NAK
2.0030446000,563,0xD4,0x28,Write,ACK
2.0031094000,564,0xD5,0xDF,Read,ACK
2.0031396000,564,0xD5,0x00,Read,ACK
2.0031700000,564,0xD5,0x52,Read,ACK
2.0032004000,564,0xD5,0xFF,Read,ACK
2.0032308000,564,0xD5,0x7B,Read,ACK
2.0033174000,564,0xD5,0x40,Read,NAK
2.0033838000,566,0xD4,0x20,Write,ACK
2.0034484000,567,0xD5,0x1E,Read,ACK
2.0034788000,567,0xD5,0xFC,Read,ACK
2.0035092000,567,0xD5,0x67,Read,ACK
2.0035396000,567,0xD5,0x00,Read,ACK
2.0035700000,567,0xD5,0x5F,Read,ACK
2.0036004000,567,0xD5,0xFF,Read,ACK
2.0036306000,567,0xD5,0xAE,Read,ACK
2.0036610000,567,0xD5,0xFF,Read,NAK
2.0229100000,569,0xD4,0x1E,Write,ACK
2.0229750000,570,0xD5,0x07,Read,NAK
2.0230414000,572,0xD4,0x28,Write,ACK
2.0231064000,573,0xD5,0xE0,Read,ACK
2.0231368000,573,0xD5,0x00,Read,ACK
2.0231674000,573,0xD5,0x52,Read,ACK
2.0231976000,573,0xD5,0xFF,Read,ACK
2.0232280000,573,0xD5,0x7A,Read,ACK
2.0233262000,573,0xD5,0x40,Read,NAK
2.0233980000,575,0xD4,0x20,Write,ACK
2.0234710000,576,0xD5,0x2E,Read,ACK
2.0235032000,576,0xD5,0xFC,Read,ACK
2.0235338000,576,0xD5,0x62,Read,ACK
2.0235646000,576,0xD5,0x00,Read,ACK
2.0235956000,576,0xD5,0x63,Read,ACK
2.0236264000,576,0xD5,0xFF,Read,ACK
2.0236570000,576,0xD5,0xA9,Read,ACK
2.0236884000,576,0xD5,0xFF,Read,NAK
2.0429174000,578,0xD4,0x1E,Write,ACK
2.0429870000,579,0xD5,0x07,Read,NAK
2.0430546000,581,0xD4,0x28,Write,ACK
2.0431196000,582,0xD5,0xE4,Read,ACK
2.0431500000,582,0xD5,0x00,Read,ACK
2.0431804000,582,0xD5,0x4F,Read,ACK
2.0432108000,582,0xD5,0xFF,Read,ACK
2.0432412000,582,0xD5,0x82,Read,ACK
2.0433336000,582,0xD5,0x40,Read,NAK
2.0434002000,584,0xD4,0x20,Write,ACK
2.0434652000,585,0xD5,0x30,Read,ACK
2.0434956000,585,0xD5,0xFC,Read,ACK
2.0435260000,585,0xD5,0x64,Read,ACK
2.0435564000,585,0xD5,0x00,Read,ACK
2.0435868000,585,0xD5,0x66,Read,ACK
2.0436172000,585,0xD5,0xFF,Read,ACK
2.0436474000,585,0xD5,0xAD,Read,ACK
2.0436778000,585,0xD5,0xFF,Read,NAK
2.0629242000,587,0xD4,0x1E,Write,ACK
2.0629892000,588,0xD5,0x07,Read,NAK
2.0630556000,590,0xD4,0x28,Write,ACK
2.0631206000,591,0xD5,0xE3,Read,ACK
2.0631510000,591,0xD5,0x00,Read,ACK
2.0631814000,591,0xD5,0x53,Read,ACK
2.0632118000,591,0xD5,0xFF,Read,ACK
2.0632422000,591,0xD5,0x7F,Read,ACK
2.0633346000,591,0xD5,0x40,Read,NAK
2.0634012000,593,0xD4,0x20,Write,ACK
2.0634660000,594,0xD5,0x33,Read,ACK
2.0634964000,594,0xD5,0xFC,Read,ACK
2.0635266000,594,0xD5,0x62,Read,ACK
2.0635570000,594,0xD5,0x00,Read,ACK
2.0635876000,594,0xD5,0x5D,Read,ACK
2.0636178000,594,0xD5,0xFF,Read,ACK
2.0636482000,594,0xD5,0xAC,Read,ACK
2.0636784000,594,0xD5,0xFF,Read,NAK
2.0829314000,596,0xD4,0x1E,Write,ACK
2.0829990000,597,0xD5,0x07,Read,NAK
2.0830664000,599,0xD4,0x28,Write,ACK
2.0831312000,600,0xD5,0xE0,Read,ACK
2.0831614000,600,0xD5,0x00,Read,ACK
2.0831918000,600,0xD5,0x58,Read,ACK
2.0832222000,600,0xD5,0xFF,Read,ACK
2.0832524000,600,0xD5,0x7A,Read,ACK
2.0833760000,600,0xD5,0x40,Read,NAK
2.0834424000,602,0xD4,0x20,Write,ACK
2.0835072000,603,0xD5,0x24,Read,ACK
2.0835374000,603,0xD5,0xFC,Read,ACK
2.0835678000,603,0xD5,0x61,Read,ACK
2.0835982000,603,0xD5,0x00,Read,ACK
2.0836286000,603,0xD5,0x65,Read,ACK
2.0836590000,603,0xD5,0xFF,Read,ACK
2.0836892000,603,0xD5,0xAB,Read,ACK
2.0837196000,603,0xD5,0xFF,Read,NAK
2.1029346000,605,0xD4,0x1E,Write,ACK
2.1029994000,606,0xD5,0x07,Read,NAK
2.1030658000,608,0xD4,0x28,Write,ACK
2.1031306000,609,0xD5,0xDE,Read,ACK
2.1031608000,609,0xD5,0x00,Read,ACK
2.1031914000,609,0xD5,0x57,Read,ACK
2.1032216000,609,0xD5,0xFF,Read,ACK
2.1032518000,609,0xD5,0x83,Read,ACK
2.1033448000,609,0xD5,0x40,Read,NAK
2.1034112000,611,0xD4,0x20,Write,ACK
2.1034758000,612,0xD5,0x1C,Read,ACK
2.1035062000,612,0xD5,0xFC,Read,ACK
2.1035366000,612,0xD5,0x5E,Read,ACK
2.1035668000,612,0xD5,0x00,Read,ACK
2.1035972000,612,0xD5,0x64,Read,ACK
2.1036276000,612,0xD5,0xFF,Read,ACK
2.1036578000,612,0xD5,0xB1,Read,ACK
2.1036882000,612,0xD5,0xFF,Read,NAK
2.1229364000,614,0xD4,0x1E,Write,ACK
2.1230012000,615,0xD5,0x07,Read,NAK
2.1230676000,617,0xD4,0x28,Write,ACK
2.1231326000,618,0xD5,0xE0,Read,ACK
2.1231630000,618,0xD5,0x00,Read,ACK
2.1231934000,618,0xD5,0x56,Read,ACK
2.1232238000,618,0xD5,0xFF,Read,ACK
2.1232540000,618,0xD5,0x83,Read,ACK
2.1233534000,618,0xD5,0x40,Read,NAK
2.1234288000,620,0xD4,0x20,Write,ACK
2.1235034000,621,0xD5,0x2E,Read,ACK
2.1235346000,621,0xD5,0xFC,Read,ACK
2.1235650000,621,0xD5,0x60,Read,ACK
2.1235960000,621,0xD5,0x00,Read,ACK
2.1236266000,621,0xD5,0x61,Read,ACK
2.1236574000,621,0xD5,0xFF,Read,ACK
2.1236878000,621,0xD5,0xB7,Read,ACK
2.1237190000,621,0xD5,0xFF,Read,NAK
2.1429434000,623,0xD4,0x1E,Write,ACK
2.1430118000,624,0xD5,0x07,Read,NAK
2.1430794000,626,0xD4,0x28,Write,ACK
2.1431442000,627,0xD5,0xE2,Read,ACK
2.1431744000,627,0xD5,0x00,Read,ACK
2.1432050000,627,0xD5,0x56,Read,ACK
2.1432352000,627,0xD5,0xFF,Read,ACK
2.1432654000,627,0xD5,0x76,Read,ACK
2.1433560000,627,0xD5,0x40,Read,NAK
2.1434224000,629,0xD4,0x20,Write,ACK
2.1434874000,630,0xD5,0x2C,Read,ACK
2.1435178000,630,0xD5,0xFC,Read,ACK
2.1435482000,630,0xD5,0x50,Read,ACK
2.1435786000,630,0xD5,0x00,Read,ACK
2.1436092000,630,0xD5,0x6E,Read,ACK
2.1436394000,630,0xD5,0xFF,Read,ACK
2.1436698000,630,0xD5,0xB5,Read,ACK
2.1437002000,630,0xD5,0xFF,Read,NAK
2.1629506000,632,0xD4,0x1E,Write,ACK
2.1630154000,633,0xD5,0x07,Read,NAK
2.1630820000,635,0xD4,0x28,Write,ACK
2.1631468000,636,0xD5,0xE0,Read,ACK
2.1631772000,636,0xD5,0x00,Read,ACK
2.1632078000,636,0xD5,0x54,Read,ACK
2.1632382000,636,0xD5,0xFF,Read,ACK
2.1632686000,636,0xD5,0x83,Read,ACK
2.1633612000,636,0xD5,0x40,Read,NAK
2.1634278000,638,0xD4,0x20,Write,ACK
2.1634926000,639,0xD5,0x28,Read,ACK
2.1635230000,639,0xD5,0xFC,Read,ACK
2.1635534000,639,0xD5,0x51,Read,ACK
2.1635838000,639,0xD5,0x00,Read,ACK
2.1636142000,639,0xD5,0x71,Read,ACK
2.1636446000,639,0xD5,0xFF,Read,ACK
2.1636750000,639,0xD5,0xA8,Read,ACK
2.1637054000,639,0xD5,0xFF,Read,NAK
2.1829558000,641,0xD4,0x1E,Write,ACK
2.1830234000,642,0xD5,0x07,Read,NAK
2.1830908000,644,0xD4,0x28,Write,ACK
2.1831556000,645,0xD5,0xDF,Read,ACK
2.1831858000,645,0xD5,0x00,Read,ACK
2.1832162000,645,0xD5,0x55,Read,ACK
2.1832466000,645,0xD5,0xFF,Read,ACK
2.1832770000,645,0xD5,0x7C,Read,ACK
2.1833658000,645,0xD5,0x40,Read,NAK
2.1834324000,647,0xD4,0x20,Write,ACK
2.1834970000,648,0xD5,0x26,Read,ACK
2.1835274000,648,0xD5,0xFC,Read,ACK
2.1835578000,648,0xD5,0x55,Read,ACK
2.1835882000,648,0xD5,0x00,Read,ACK
2.1836186000,648,0xD5,0x77,Read,ACK
2.1836490000,648,0xD5,0xFF,Read,ACK
2.1836792000,648,0xD5,0xAB,Read,ACK
2.1837096000,648,0xD5,0xFF,Read,NAK
2.2029610000,650,0xD4,0x1E,Write,ACK
2.2030256000,651,0xD5,0x07,Read,NAK
2.2030920000,653,0xD4,0x28,Write,ACK
2.2031568000,654,0xD5,0xDA,Read,ACK
2.2031872000,654,0xD5,0x00,Read,ACK
2.2032176000,654,0xD5,0x54,Read,ACK
2.2032480000,654,0xD5,0xFF,Read,ACK
2.2032782000,654,0xD5,0x80,Read,ACK
2.2033714000,654,0xD5,0x40,Read,NAK
2.2034378000,656,0xD4,0x20,Write,ACK
2.2035026000,657,0xD5,0x35,Read,ACK
2.2035330000,657,0xD5,0xFC,Read,ACK
2.2035632000,657,0xD5,0x62,Read,ACK
2.2035938000,657,0xD5,0x00,Read,ACK
2.2036242000,657,0xD5,0x6D,Read,ACK
2.2036546000,657,0xD5,0xFF,Read,ACK
2.2036848000,657,0xD5,0xB2,Read,ACK
2.2037150000,657,0xD5,0xFF,Read,NAK
2.2229664000,659,0xD4,0x1E,Write,ACK
2.2230342000,660,0xD5,0x07,Read,NAK
2.2231016000,662,0xD4,0x28,Write,ACK
2.2231664000,663,0xD5,0xD7,Read,ACK
2.2231968000,663,0xD5,0x00,Read,ACK
2.2232272000,663,0xD5,0x56,Read,ACK
2.2232576000,663,0xD5,0xFF,Read,ACK
2.2232878000,663,0xD5,0x89,Read,ACK
2.2233798000,663,0xD5,0x40,Read,NAK
2.2234568000,665,0xD4,0x20,Write,ACK
2.2235292000,666,0xD5,0x2C,Read,ACK
2.2235598000,666,0xD5,0xFC,Read,ACK
2.2235912000,666,0xD5,0x74,Read,ACK
2.2236218000,666,0xD5,0x00,Read,ACK
2.2236524000,666,0xD5,0x48,Read,ACK
2.2236830000,666,0xD5,0xFF,Read,ACK
2.2237136000,666,0xD5,0xB1,Read,ACK
2.2237444000,666,0xD5,0xFF,Read,NAK
2.2429688000,668,0xD4,0x1E,Write,ACK
2.2430354000,669,0xD5,0x07,Read,NAK
2.2431020000,671,0xD4,0x28,Write,ACK
2.2431678000,672,0xD5,0xDB,Read,ACK
2.2431980000,672,0xD5,0x00,Read,ACK
2.2432286000,672,0xD5,0x56,Read,ACK
2.2432590000,672,0xD5,0xFF,Read,ACK
2.2432892000,672,0xD5,0x8C,Read,ACK
2.2433824000,672,0xD5,0x40,Read,NAK
2.2434488000,674,0xD4,0x20,Write,ACK
2.2435136000,675,0xD5,0x39,Read,ACK
2.2435440000,675,0xD5,0xFC,Read,ACK
2.2435744000,675,0xD5,0xA1,Read,ACK
2.2436048000,675,0xD5,0x00,Read,ACK
2.2436354000,675,0xD5,0xF1,Read,ACK
2.2436658000,675,0xD5,0xFE,Read,ACK
2.2436962000,675,0xD5,0xAF,Read,ACK
2.2437264000,675,0xD5,0xFF,Read,NAK
2.2629818000,677,0xD4,0x1E,Write,ACK
2.2630494000,678,0xD5,0x07,Read,NAK
2.2631160000,680,0xD4,0x28,Write,ACK
2.2631808000,681,0xD5,0xE2,Read,ACK
2.2632112000,681,0xD5,0x00,Read,ACK
2.2632416000,681,0xD5,0x5A,Read,ACK
2.2632720000,681,0xD5,0xFF,Read,ACK
2.2633024000,681,0xD5,0x73,Read,ACK
2.2633872000,681,0xD5,0x40,Read,NAK
2.2634538000,683,0xD4,0x20,Write,ACK
2.2635186000,684,0xD5,0x26,Read,ACK
2.2635490000,684,0xD5,0xFC,Read,ACK
2.2635794000,684,0xD5,0x99,Read,ACK
2.2636098000,684,0xD5,0x00,Read,ACK
2.2636404000,684,0xD5,0x0A,Read,ACK
2.2636708000,684,0xD5,0xFF,Read,ACK
2.2637010000,684,0xD5,0xAF,Read,ACK
2.2637312000,684,0xD5,0xFF,Read,NAK
2.2829802000,686,0xD4,0x1E,Write,ACK
2.2830450000,687,0xD5,0x07,Read,NAK
2.2831114000,689,0xD4,0x28,Write,ACK
2.2831762000,690,0xD5,0xE2,Read,ACK
2.2832066000,690,0xD5,0x00,Read,ACK
2.2832370000,690,0xD5,0x60,Read,ACK
2.2832676000,690,0xD5,0xFF,Read,ACK
2.2832978000,690,0xD5,0x74,Read,ACK
2.2833968000,690,0xD5,0x40,Read,NAK
2.2834632000,692,0xD4,0x20,Write,ACK
2.2835280000,693,0xD5,0x35,Read,ACK
2.2835586000,693,0xD5,0xFC,Read,ACK
2.2835888000,693,0xD5,0x4F,Read,ACK
2.2836192000,693,0xD5,0x00,Read,ACK
2.2836498000,693,0xD5,0x81,Read,ACK
2.2836802000,693,0xD5,0xFF,Read,ACK
2.2837104000,693,0xD5,0xAF,Read,ACK
2.2837408000,693,0xD5,0xFF,Read,NAK
2.3029874000,695,0xD4,0x1E,Write,ACK
2.3030522000,696,0xD5,0x07,Read,NAK
2.3031188000,698,0xD4,0x28,Write,ACK
2.3031838000,699,0xD5,0xE3,Read,ACK
2.3032140000,699,0xD5,0x00,Read,ACK
2.3032446000,699,0xD5,0x65,Read,ACK
2.3032750000,699,0xD5,0xFF,Read,ACK
2.3033052000,699,0xD5,0x84,Read,ACK
2.3033980000,699,0xD5,0x40,Read,NAK
2.3034644000,701,0xD4,0x20,Write,ACK
2.3035294000,702,0xD5,0x40,Read,ACK
2.3035598000,702,0xD5,0xFC,Read,ACK
2.3035900000,702,0xD5,0x66,Read,ACK
2.3036204000,702,0xD5,0x00,Read,ACK
2.3036510000,702,0xD5,0x58,Read,ACK
2.3036814000,702,0xD5,0xFF,Read,ACK
2.3037116000,702,0xD5,0xAA,Read,ACK
2.3037420000,702,0xD5,0xFF,Read,NAK
2.3229920000,704,0xD4,0x1E,Write,ACK
2.3230598000,705,0xD5,0x07,Read,NAK
2.3231262000,707,0xD4,0x28,Write,ACK
2.3231910000,708,0xD5,0xE6,Read,ACK
2.3232214000,708,0xD5,0x00,Read,ACK
2.3232518000,708,0xD5,0x64,Read,ACK
2.3232822000,708,0xD5,0xFF,Read,ACK
2.3233124000,708,0xD5,0x82,Read,ACK
2.3234080000,708,0xD5,0x40,Read,NAK
2.3234836000,710,0xD4,0x20,Write,ACK
2.3235554000,711,0xD5,0x31,Read,ACK
2.3235868000,711,0xD5,0xFC,Read,ACK
2.3236174000,711,0xD5,0x46,Read,ACK
2.3236482000,711,0xD5,0x00,Read,ACK
2.3236788000,711,0xD5,0x77,Read,ACK
2.3237102000,711,0xD5,0xFF,Read,ACK
2.3237406000,711,0xD5,0xB4,Read,ACK
2.3237714000,711,0xD5,0xFF,Read,NAK
2.3429950000,713,0xD4,0x1E,Write,ACK
2.3430616000,714,0xD5,0x07,Read,NAK
2.3431282000,716,0xD4,0x28,Write,ACK
2.3431940000,717,0xD5,0xE7,Read,ACK
2.3432244000,717,0xD5,0x00,Read,ACK
2.3432548000,717,0xD5,0x5E,Read,ACK
2.3432852000,717,0xD5,0xFF,Read,ACK
2.3433154000,717,0xD5,0x81,Read,ACK
2.3434080000,717,0xD5,0x40,Read,NAK
2.3434744000,719,0xD4,0x20,Write,ACK
2.3435394000,720,0xD5,0x46,Read,ACK
2.3435698000,720,0xD5,0xFC,Read,ACK
2.3436000000,720,0xD5,0x62,Read,ACK
2.3436304000,720,0xD5,0x00,Read,ACK
2.3436610000,720,0xD5,0x5C,Read,ACK
2.3436914000,720,0xD5,0xFF,Read,ACK
2.3437214000,720,0xD5,0xB6,Read,ACK
2.3437518000,720,0xD5,0xFF,Read,NAK
2.3630062000,722,0xD4,0x1E,Write,ACK
2.3630738000,723,0xD5,0x07,Read,NAK
2.3631402000,725,0xD4,0x28,Write,ACK
2.3632050000,726,0xD5,0xE6,Read,ACK
2.3632354000,726,0xD5,0x00,Read,ACK
2.3632658000,726,0xD5,0x58,Read,ACK
2.3632964000,726,0xD5,0xFF,Read,ACK
2.3633266000,726,0xD5,0x82,Read,ACK
2.3634132000,726,0xD5,0x40,Read,NAK
2.3634798000,728,0xD4,0x20,Write,ACK
2.3635446000,729,0xD5,0x38,Read,ACK
2.3635750000,729,0xD5,0xFC,Read,ACK
2.3636054000,729,0xD5,0x51,Read,ACK
2.3636358000,729,0xD5,0x00,Read,ACK
2.3636662000,729,0xD5,0x78,Read,ACK
2.3636966000,729,0xD5,0xFF,Read,ACK
2.3637268000,729,0xD5,0xAD,Read,ACK
2.3637572000,729,0xD5,0xFF,Read,NAK
2.3830066000,731,0xD4,0x1E,Write,ACK
2.3830714000,732,0xD5,0x07,Read,NAK
2.3831378000,734,0xD4,0x28,Write,ACK
2.3832028000,735,0xD5,0xE2,Read,ACK
2.3832332000,735,0xD5,0x00,Read,ACK
2.3832636000,735,0xD5,0x56,Read,ACK
2.3832940000,735,0xD5,0xFF,Read,ACK
2.3833244000,735,0xD5,0x86,Read,ACK
2.3834228000,735,0xD5,0x40,Read,NAK
2.3834892000,737,0xD4,0x20,Write,ACK
2.3835540000,738,0xD5,0x37,Read,ACK
2.3835844000,738,0xD5,0xFC,Read,ACK
2.3836148000,738,0xD5,0x5F,Read,ACK
2.3836452000,738,0xD5,0x00,Read,ACK
2.3836756000,738,0xD5,0x66,Read,ACK
2.3837062000,738,0xD5,0xFF,Read,ACK
2.3837364000,738,0xD5,0xAE,Read,ACK
2.3837668000,738,0xD5,0xFF,Read,NAK
2.4030186000,740,0xD4,0x1E,Write,ACK
2.4030862000,741,0xD5,0x07,Read,NAK
2.4031526000,743,0xD4,0x28,Write,ACK
2.4032174000,744,0xD5,0xE5,Read,ACK
2.4032478000,744,0xD5,0x00,Read,ACK
2.4032782000,744,0xD5,0x55,Read,ACK
2.4033086000,744,0xD5,0xFF,Read,ACK
2.4033388000,744,0xD5,0x82,Read,ACK
2.4034282000,744,0xD5,0x40,Read,NAK
2.4034946000,746,0xD4,0x20,Write,ACK
2.4035592000,747,0xD5,0x3C,Read,ACK
2.4035896000,747,0xD5,0xFC,Read,ACK
2.4036198000,747,0xD5,0x5F,Read,ACK
2.4036502000,747,0xD5,0x00,Read,ACK
2.4036806000,747,0xD5,0x6E,Read,ACK
2.4037110000,747,0xD5,0xFF,Read,ACK
2.4037412000,747,0xD5,0xAB,Read,ACK
2.4037716000,747,0xD5,0xFF,Read,NAK
2.4230154000,749,0xD4,0x1E,Write,ACK
2.4230802000,750,0xD5,0x07,Read,NAK
2.4231466000,752,0xD4,0x28,Write,ACK
2.4232116000,753,0xD5,0xEE,Read,ACK
2.4232418000,753,0xD5,0x00,Read,ACK
2.4232724000,753,0xD5,0x5B,Read,ACK
2.4233026000,753,0xD5,0xFF,Read,ACK
2.4233330000,753,0xD5,0x7A,Read,ACK
2.4234318000,753,0xD5,0x40,Read,NAK
2.4235054000,755,0xD4,0x20,Write,ACK
2.4235818000,756,0xD5,0x31,Read,ACK
2.4236126000,756,0xD5,0xFC,Read,ACK
2.4236438000,756,0xD5,0x61,Read,ACK
2.4236746000,756,0xD5,0x00,Read,ACK
2.4237052000,756,0xD5,0x63,Read,ACK
2.4237358000,756,0xD5,0xFF,Read,ACK
2.4237664000,756,0xD5,0xA5,Read,ACK
2.4237970000,756,0xD5,0xFF,Read,NAK
2.4430228000,758,0xD4,0x1E,Write,ACK
2.4430924000,759,0xD5,0x07,Read,NAK
2.4431598000,761,0xD4,0x28,Write,ACK
2.4432248000,762,0xD5,0xEA,Read,ACK
2.4432552000,762,0xD5,0x00,Read,ACK
2.4432856000,762,0xD5,0x58,Read,ACK
2.4433160000,762,0xD5,0xFF,Read,ACK
2.4433462000,762,0xD5,0x7E,Read,ACK
2.4434348000,762,0xD5,0x40,Read,NAK
2.4435014000,764,0xD4,0x20,Write,ACK
2.4435660000,765,0xD5,0x44,Read,ACK
2.4435964000,765,0xD5,0xFC,Read,ACK
2.4436268000,765,0xD5,0x53,Read,ACK
2.4436572000,765,0xD5,0x00,Read,ACK
2.4436878000,765,0xD5,0x76,Read,ACK
2.4437182000,765,0xD5,0xFF,Read,ACK
2.4437484000,765,0xD5,0xAD,Read,ACK
2.4437786000,765,0xD5,0xFF,Read,NAK
2.4630296000,767,0xD4,0x1E,Write,ACK
2.4630946000,768,0xD5,0x07,Read,NAK
2.4631610000,770,0xD4,0x28,Write,ACK
2.4632258000,771,0xD5,0xDC,Read,ACK
2.4632562000,771,0xD5,0x00,Read,ACK
2.4632868000,771,0xD5,0x58,Read,ACK
2.4633172000,771,0xD5,0xFF,Read,ACK
2.4633476000,771,0xD5,0x7F,Read,ACK
2.4634280000,771,0xD5,0x40,Read,NAK
2.4634946000,773,0xD4,0x20,Write,ACK
2.4635594000,774,0xD5,0x43,Read,ACK
2.4635898000,774,0xD5,0xFC,Read,ACK
2.4636200000,774,0xD5,0x59,Read,ACK
2.4636506000,774,0xD5,0x00,Read,ACK
2.4636810000,774,0xD5,0x62,Read,ACK
2.4637114000,774,0xD5,0xFF,Read,ACK
2.4637418000,774,0xD5,0xAE,Read,ACK
2.4637722000,774,0xD5,0xFF,Read,NAK
2.4830330000,776,0xD4,0x1E,Write,ACK
2.4830978000,777,0xD5,0x07,Read,NAK
2.4831642000,779,0xD4,0x28,Write,ACK
2.4832292000,780,0xD5,0xD1,Read,ACK
2.4832596000,780,0xD5,0x00,Read,ACK
2.4832902000,780,0xD5,0x58,Read,ACK
2.4833204000,780,0xD5,0xFF,Read,ACK
2.4833508000,780,0xD5,0x77,Read,ACK
2.4834376000,780,0xD5,0x40,Read,NAK
2.4835042000,782,0xD4,0x20,Write,ACK
2.4835688000,783,0xD5,0x41,Read,ACK
2.4835994000,783,0xD5,0xFC,Read,ACK
2.4836298000,783,0xD5,0x57,Read,ACK
2.4836600000,783,0xD5,0x00,Read,ACK
2.4836906000,783,0xD5,0x69,Read,ACK
2.4837210000,783,0xD5,0xFF,Read,ACK
2.4837514000,783,0xD5,0xAF,Read,ACK
2.4837816000,783,0xD5,0xFF,Read,NAK
2.5030422000,785,0xD4,0x1E,Write,ACK
2.5031096000,786,0xD5,0x07,Read,NAK
2.5031770000,788,0xD4,0x28,Write,ACK
2.5032416000,789,0xD5,0xCC,Read,ACK
2.5032720000,789,0xD5,0x00,Read,ACK
2.5033024000,789,0xD5,0x54,Read,ACK
2.5033328000,789,0xD5,0xFF,Read,ACK
2.5033632000,789,0xD5,0x7E,Read,ACK
2.5034386000,789,0xD5,0x40,Read,NAK
2.5035050000,791,0xD4,0x20,Write,ACK
2.5035698000,792,0xD5,0x3F,Read,ACK
2.5036000000,792,0xD5,0xFC,Read,ACK
2.5036302000,792,0xD5,0x52,Read,ACK
2.5036606000,792,0xD5,0x00,Read,ACK
2.5036910000,792,0xD5,0x63,Read,ACK
2.5037214000,792,0xD5,0xFF,Read,ACK
2.5037518000,792,0xD5,0xB0,Read,ACK
2.5037820000,792,0xD5,0xFF,Read,NAK
2.5230418000,794,0xD4,0x1E,Write,ACK
2.5231066000,795,0xD5,0x07,Read,NAK
2.5231732000,797,0xD4,0x28,Write,ACK
2.5232380000,798,0xD5,0xCE,Read,ACK
2.5232684000,798,0xD5,0x00,Read,ACK
2.5232990000,798,0xD5,0x56,Read,ACK
2.5233292000,798,0xD5,0xFF,Read,ACK
2.5233596000,798,0xD5,0x80,Read,ACK
2.5234466000,798,0xD5,0x40,Read,NAK
2.5235220000,800,0xD4,0x20,Write,ACK
2.5235912000,801,0xD5,0x38,Read,ACK
2.5236218000,801,0xD5,0xFC,Read,ACK
2.5236528000,801,0xD5,0x61,Read,ACK
2.5236836000,801,0xD5,0x00,Read,ACK
2.5237142000,801,0xD5,0x57,Read,ACK
2.5237450000,801,0xD5,0xFF,Read,ACK
2.5237754000,801,0xD5,0xB0,Read,ACK
2.5238060000,801,0xD5,0xFF,Read,NAK
2.5430488000,803,0xD4,0x1E,Write,ACK
2.5431164000,804,0xD5,0x07,Read,NAK
2.5431840000,806,0xD4,0x28,Write,ACK
2.5432490000,807,0xD5,0xD5,Read,ACK
2.5432792000,807,0xD5,0x00,Read,ACK
2.5433096000,807,0xD5,0x58,Read,ACK
2.5433402000,807,0xD5,0xFF,Read,ACK
2.5433704000,807,0xD5,0x78,Read,ACK
2.5434494000,807,0xD5,0x40,Read,NAK
2.5435160000,809,0xD4,0x20,Write,ACK
2.5435808000,810,0xD5,0x3E,Read,ACK
2.5436112000,810,0xD5,0xFC,Read,ACK
2.5436414000,810,0xD5,0x68,Read,ACK
2.5436718000,810,0xD5,0x00,Read,ACK
2.5437024000,810,0xD5,0x54,Read,ACK
2.5437328000,810,0xD5,0xFF,Read,ACK
2.5437630000,810,0xD5,0xB0,Read,ACK
2.5437934000,810,0xD5,0xFF,Read,NAK
2.5630560000,812,0xD4,0x1E,Write,ACK
2.5631208000,813,0xD5,0x07,Read,NAK
2.5631872000,815,0xD4,0x28,Write,ACK
2.5632520000,816,0xD5,0xDB,Read,ACK
2.5632824000,816,0xD5,0x00,Read,ACK
2.5633128000,816,0xD5,0x5A,Read,ACK
2.5633432000,816,0xD5,0xFF,Read,ACK
2.5633734000,816,0xD5,0x76,Read,ACK
2.5634634000,816,0xD5,0x40,Read,NAK
2.5635298000,818,0xD4,0x20,Write,ACK
2.5635946000,819,0xD5,0x3D,Read,ACK
2.5636248000,819,0xD5,0xFC,Read,ACK
2.5636552000,819,0xD5,0x69,Read,ACK
2.5636856000,819,0xD5,0x00,Read,ACK
2.5637162000,819,0xD5,0x59,Read,ACK
2.5637466000,819,0xD5,0xFF,Read,ACK
2.5637770000,819,0xD5,0xB0,Read,ACK
2.5638072000,819,0xD5,0xFF,Read,NAK
2.5830632000,821,0xD4,0x1E,Write,ACK
2.5831308000,822,0xD5,0x07,Read,NAK
2.5831982000,824,0xD4,0x28,Write,ACK
2.5832630000,825,0xD5,0xDC,Read,ACK
2.5832932000,825,0xD5,0x00,Read,ACK
2.5833236000,825,0xD5,0x55,Read,ACK
2.5833540000,825,0xD5,0xFF,Read,ACK
2.5833844000,825,0xD5,0x78,Read,ACK
2.5834604000,825,0xD5,0x40,Read,NAK
2.5835268000,827,0xD4,0x20,Write,ACK
2.5835916000,828,0xD5,0x41,Read,ACK
2.5836220000,828,0xD5,0xFC,Read,ACK
2.5836524000,828,0xD5,0x5A,Read,ACK
2.5836826000,828,0xD5,0x00,Read,ACK
2.5837130000,828,0xD5,0x62,Read,ACK
2.5837434000,828,0xD5,0xFF,Read,ACK
2.5837738000,828,0xD5,0xB6,Read,ACK
2.5838040000,828,0xD5,0xFF,Read,NAK
2.6030666000,830,0xD4,0x1E,Write,ACK
2.6031314000,831,0xD5,0x07,Read,NAK
2.6031978000,833,0xD4,0x28,Write,ACK
2.6032626000,834,0xD5,0xDE,Read,ACK
2.6032928000,834,0xD5,0x00,Read,ACK
2.6033234000,834,0xD5,0x4D,Read,ACK
2.6033536000,834,0xD5,0xFF,Read,ACK
2.6033838000,834,0xD5,0x77,Read,ACK
2.6034658000,834,0xD5,0x40,Read,NAK
2.6035322000,836,0xD4,0x20,Write,ACK
2.6035970000,837,0xD5,0x36,Read,ACK
2.6036272000,837,0xD5,0xFC,Read,ACK
2.6036576000,837,0xD5,0x52,Read,ACK
2.6036880000,837,0xD5,0x00,Read,ACK
2.6037184000,837,0xD5,0x61,Read,ACK
2.6037488000,837,0xD5,0xFF,Read,ACK
2.6037790000,837,0xD5,0xB6,Read,ACK
2.6038094000,837,0xD5,0xFF,Read,NAK
2.6230720000,839,0xD4,0x1E,Write,ACK
2.6231396000,840,0xD5,0x07,Read,NAK
2.6232072000,842,0xD4,0x28,Write,ACK
2.6232722000,843,0xD5,0xE5,Read,ACK
2.6233026000,843,0xD5,0x00,Read,ACK
2.6233330000,843,0xD5,0x4E,Read,ACK
2.6233634000,843,0xD5,0xFF,Read,ACK
2.6233936000,843,0xD5,0x78,Read,ACK
2.6234738000,843,0xD5,0x40,Read,NAK
2.6235468000,845,0xD4,0x20,Write,ACK
2.6236244000,846,0xD5,0x4A,Read,ACK
2.6236554000,846,0xD5,0xFC,Read,ACK
2.6236860000,846,0xD5,0x5B,Read,ACK
2.6237166000,846,0xD5,0x00,Read,ACK
2.6237472000,846,0xD5,0x5E,Read,ACK
2.6237786000,846,0xD5,0xFF,Read,ACK
2.6238092000,846,0xD5,0xB6,Read,ACK
2.6238476000,846,0xD5,0xFF,Read,NAK
2.6430742000,848,0xD4,0x1E,Write,ACK
2.6431398000,849,0xD5,0x07,Read,NAK
2.6432064000,851,0xD4,0x28,Write,ACK
2.6432722000,852,0xD5,0xE6,Read,ACK
2.6433026000,852,0xD5,0x00,Read,ACK
2.6433330000,852,0xD5,0x56,Read,ACK
2.6433634000,852,0xD5,0xFF,Read,ACK
2.6433938000,852,0xD5,0x77,Read,ACK
2.6434780000,852,0xD5,0x40,Read,NAK
2.6435446000,854,0xD4,0x20,Write,ACK
2.6436094000,855,0xD5,0x41,Read,ACK
2.6436398000,855,0xD5,0xFC,Read,ACK
2.6436700000,855,0xD5,0x61,Read,ACK
2.6437004000,855,0xD5,0x00,Read,ACK
2.6437310000,855,0xD5,0x5C,Read,ACK
2.6437614000,855,0xD5,0xFF,Read,ACK
2.6437916000,855,0xD5,0xB3,Read,ACK
2.6438220000,855,0xD5,0xFF,Read,NAK
2.6630824000,857,0xD4,0x1E,Write,ACK
2.6631472000,858,0xD5,0x07,Read,NAK
2.6632138000,860,0xD4,0x28,Write,ACK
2.6632786000,861,0xD5,0xDB,Read,ACK
2.6633090000,861,0xD5,0x00,Read,ACK
2.6633394000,861,0xD5,0x56,Read,ACK
2.6633698000,861,0xD5,0xFF,Read,ACK
2.6634002000,861,0xD5,0x7E,Read,ACK
2.6634818000,861,0xD5,0x40,Read,NAK
2.6635482000,863,0xD4,0x20,Write,ACK
2.6636132000,864,0xD5,0x3C,Read,ACK
2.6636436000,864,0xD5,0xFC,Read,ACK
2.6636740000,864,0xD5,0x51,Read,ACK
2.6637044000,864,0xD5,0x00,Read,ACK
2.6637348000,864,0xD5,0x6E,Read,ACK
2.6637654000,864,0xD5,0xFF,Read,ACK
2.6637956000,864,0xD5,0xB3,Read,ACK
2.6638260000,864,0xD5,0xFF,Read,NAK
2.6830886000,866,0xD4,0x1E,Write,ACK
2.6831562000,867,0xD5,0x07,Read,NAK
2.6832236000,869,0xD4,0x28,Write,ACK
2.6832884000,870,0xD5,0xD4,Read,ACK
2.6833188000,870,0xD5,0x00,Read,ACK
2.6833492000,870,0xD5,0x53,Read,ACK
2.6833796000,870,0xD5,0xFF,Read,ACK
2.6834100000,870,0xD5,0x7F,Read,ACK
2.6834914000,870,0xD5,0x40,Read,NAK
2.6835578000,872,0xD4,0x20,Write,ACK
2.6836226000,873,0xD5,0x4C,Read,ACK
2.6836530000,873,0xD5,0xFC,Read,ACK
2.6836834000,873,0xD5,0x58,Read,ACK
2.6837138000,873,0xD5,0x00,Read,ACK
2.6837442000,873,0xD5,0x54,Read,ACK
2.6837746000,873,0xD5,0xFF,Read,ACK
2.6838050000,873,0xD5,0xB5,Read,ACK
2.6838354000,873,0xD5,0xFF,Read,NAK
2.7030938000,875,0xD4,0x1E,Write,ACK
2.7031584000,876,0xD5,0x07,Read,NAK
2.7032248000,878,0xD4,0x28,Write,ACK
2.7032896000,879,0xD5,0xE9,Read,ACK
2.7033200000,879,0xD5,0x00,Read,ACK
2.7033504000,879,0xD5,0x54,Read,ACK
2.7033808000,879,0xD5,0xFF,Read,ACK
2.7034112000,879,0xD5,0x82,Read,ACK
2.7034924000,879,0xD5,0x40,Read,NAK
2.7035588000,881,0xD4,0x20,Write,ACK
2.7036236000,882,0xD5,0x3F,Read,ACK
2.7036540000,882,0xD5,0xFC,Read,ACK
2.7036842000,882,0xD5,0x62,Read,ACK
2.7037146000,882,0xD5,0x00,Read,ACK
2.7037450000,882,0xD5,0x46,Read,ACK
2.7037754000,882,0xD5,0xFF,Read,ACK
2.7038056000,882,0xD5,0xB4,Read,ACK
2.7038360000,882,0xD5,0xFF,Read,NAK
2.7230966000,884,0xD4,0x1E,Write,ACK
2.7231642000,885,0xD5,0x07,Read,NAK
2.7232316000,887,0xD4,0x28,Write,ACK
2.7232964000,888,0xD5,0xF2,Read,ACK
2.7233268000,888,0xD5,0x00,Read,ACK
2.7233574000,888,0xD5,0x52,Read,ACK
2.7233878000,888,0xD5,0xFF,Read,ACK
2.7234180000,888,0xD5,0x7A,Read,ACK
2.7235006000,888,0xD5,0x40,Read,NAK
2.7235728000,890,0xD4,0x20,Write,ACK
2.7236452000,891,0xD5,0x47,Read,ACK
2.7236758000,891,0xD5,0xFC,Read,ACK
2.7237064000,891,0xD5,0x59,Read,ACK
2.7237370000,891,0xD5,0x00,Read,ACK
2.7237676000,891,0xD5,0x69,Read,ACK
2.7237984000,891,0xD5,0xFF,Read,ACK
2.7238292000,891,0xD5,0xB2,Read,ACK
2.7238606000,891,0xD5,0xFF,Read,NAK
2.7431076000,893,0xD4,0x1E,Write,ACK
2.7431816000,894,0xD5,0x07,Read,NAK
2.7432500000,896,0xD4,0x28,Write,ACK
2.7433150000,897,0xD5,0xE8,Read,ACK
2.7433454000,897,0xD5,0x00,Read,ACK
2.7433758000,897,0xD5,0x4B,Read,ACK
2.7434062000,897,0xD5,0xFF,Read,ACK
2.7434364000,897,0xD5,0x76,Read,ACK
2.7435102000,897,0xD5,0x40,Read,NAK
2.7435766000,899,0xD4,0x20,Write,ACK
2.7436414000,900,0xD5,0x4B,Read,ACK
2.7436718000,900,0xD5,0xFC,Read,ACK
2.7437022000,900,0xD5,0x59,Read,ACK
2.7437326000,900,0xD5,0x00,Read,ACK
2.7437630000,900,0xD5,0x71,Read,ACK
2.7437936000,900,0xD5,0xFF,Read,ACK
2.7438238000,900,0xD5,0xB2,Read,ACK
2.7438542000,900,0xD5,0xFF,Read,NAK
2.7631086000,902,0xD4,0x1E,Write,ACK
2.7631790000,903,0xD5,0x07,Read,NAK
2.7632474000,905,0xD4,0x28,Write,ACK
2.7633122000,906,0xD5,0xD6,Read,ACK
2.7633426000,906,0xD5,0x00,Read,ACK
2.7633730000,906,0xD5,0x47,Read,ACK
2.7634034000,906,0xD5,0xFF,Read,ACK
2.7634338000,906,0xD5,0x7A,Read,ACK
2.7635080000,906,0xD5,0x40,Read,NAK
2.7635746000,908,0xD4,0x20,Write,ACK
2.7636394000,909,0xD5,0x3D,Read,ACK
2.7636698000,909,0xD5,0xFC,Read,ACK
2.7637000000,909,0xD5,0x4F,Read,ACK
2.7637306000,909,0xD5,0x00,Read,ACK
2.7637610000,909,0xD5,0x6E,Read,ACK
2.7637914000,909,0xD5,0xFF,Read,ACK
2.7638218000,909,0xD5,0xB8,Read,ACK
2.7638522000,909,0xD5,0xFF,Read,NAK
2.7831150000,911,0xD4,0x1E,Write,ACK
2.7831798000,912,0xD5,0x07,Read,NAK
2.7832462000,914,0xD4,0x28,Write,ACK
2.7833110000,915,0xD5,0xC9,Read,ACK
2.7833414000,915,0xD5,0x00,Read,ACK
2.7833720000,915,0xD5,0x42,Read,ACK
2.7834024000,915,0xD5,0xFF,Read,ACK
2.7834326000,915,0xD5,0x8A,Read,ACK
2.7835132000,915,0xD5,0x40,Read,NAK
2.7835798000,917,0xD4,0x20,Write,ACK
2.7836446000,918,0xD5,0x47,Read,ACK
2.7836748000,918,0xD5,0xFC,Read,ACK
2.7837052000,918,0xD5,0x4D,Read,ACK
2.7837358000,918,0xD5,0x00,Read,ACK
2.7837662000,918,0xD5,0x6E,Read,ACK
2.7837966000,918,0xD5,0xFF,Read,ACK
2.7838270000,918,0xD5,0xB9,Read,ACK
2.7838572000,918,0xD5,0xFF,Read,NAK
2.8031232000,920,0xD4,0x1E,Write,ACK
2.8031906000,921,0xD5,0x07,Read,NAK
2.8032572000,923,0xD4,0x28,Write,ACK
2.8033220000,924,0xD5,0xC6,Read,ACK
2.8033524000,924,0xD5,0x00,Read,ACK
2.8033828000,924,0xD5,0x3A,Read,ACK
2.8034130000,924,0xD5,0xFF,Read,ACK
2.8034434000,924,0xD5,0x8A,Read,ACK
2.8035184000,924,0xD5,0x40,Read,NAK
2.8035850000,926,0xD4,0x20,Write,ACK
2.8036498000,927,0xD5,0x45,Read,ACK
2.8036802000,927,0xD5,0xFC,Read,ACK
2.8037106000,927,0xD5,0x54,Read,ACK
2.8037408000,927,0xD5,0x00,Read,ACK
2.8037712000,927,0xD5,0x61,Read,ACK
2.8038016000,927,0xD5,0xFF,Read,ACK
2.8038320000,927,0xD5,0xC4,Read,ACK
2.8038624000,927,0xD5,0xFF,Read,NAK
2.8231192000,929,0xD4,0x1E,Write,ACK
2.8231838000,930,0xD5,0x07,Read,NAK
2.8232502000,932,0xD4,0x28,Write,ACK
2.8233150000,933,0xD5,0xCE,Read,ACK
2.8233454000,933,0xD5,0x00,Read,ACK
2.8233758000,933,0xD5,0x3C,Read,ACK
2.8234062000,933,0xD5,0xFF,Read,ACK
2.8234364000,933,0xD5,0x82,Read,ACK
2.8235260000,933,0xD5,0x40,Read,NAK
2.8235974000,935,0xD4,0x20,Write,ACK
2.8236706000,936,0xD5,0x43,Read,ACK
2.8237016000,936,0xD5,0xFC,Read,ACK
2.8237322000,936,0xD5,0x58,Read,ACK
2.8237630000,936,0xD5,0x00,Read,ACK
2.8237936000,936,0xD5,0x5E,Read,ACK
2.8238244000,936,0xD5,0xFF,Read,ACK
2.8238548000,936,0xD5,0xCE,Read,ACK
2.8238854000,936,0xD5,0xFF,Read,NAK
2.8431270000,938,0xD4,0x1E,Write,ACK
2.8432056000,939,0xD5,0x07,Read,NAK
2.8432722000,941,0xD4,0x28,Write,ACK
2.8433380000,942,0xD5,0xEC,Read,ACK
2.8433684000,942,0xD5,0x00,Read,ACK
2.8433988000,942,0xD5,0x56,Read,ACK
2.8434292000,942,0xD5,0xFF,Read,ACK
2.8434594000,942,0xD5,0x7C,Read,ACK
2.8435296000,942,0xD5,0x40,Read,NAK
2.8435962000,944,0xD4,0x20,Write,ACK
2.8436610000,945,0xD5,0x4B,Read,ACK
2.8436914000,945,0xD5,0xFC,Read,ACK
2.8437216000,945,0xD5,0x6F,Read,ACK
2.8437520000,945,0xD5,0x00,Read,ACK
2.8437826000,945,0xD5,0x37,Read,ACK
2.8438130000,945,0xD5,0xFF,Read,ACK
2.8438432000,945,0xD5,0xCA,Read,ACK
2.8438736000,945,0xD5,0xFF,Read,NAK
2.8631380000,947,0xD4,0x1E,Write,ACK
2.8632056000,948,0xD5,0x07,Read,NAK
2.8632722000,950,0xD4,0x28,Write,ACK
2.8633370000,951,0xD5,0x0C,Read,ACK
2.8633676000,951,0xD5,0x01,Read,ACK
2.8633980000,951,0xD5,0x78,Read,ACK
2.8634284000,951,0xD5,0xFF,Read,ACK
2.8634586000,951,0xD5,0x77,Read,ACK
2.8635346000,951,0xD5,0x40,Read,NAK
2.8636012000,953,0xD4,0x20,Write,ACK
2.8636660000,954,0xD5,0x5A,Read,ACK
2.8636964000,954,0xD5,0xFC,Read,ACK
2.8637266000,954,0xD5,0x60,Read,ACK
2.8637570000,954,0xD5,0x00,Read,ACK
2.8637874000,954,0xD5,0x53,Read,ACK
2.8638178000,954,0xD5,0xFF,Read,ACK
2.8638482000,954,0xD5,0xC8,Read,ACK
2.8638786000,954,0xD5,0xFF,Read,NAK
2.8831384000,956,0xD4,0x1E,Write,ACK
2.8832030000,957,0xD5,0x07,Read,NAK
2.8832696000,959,0xD4,0x28,Write,ACK
2.8833344000,960,0xD5,0x02,Read,ACK
2.8833648000,960,0xD5,0x01,Read,ACK
2.8833954000,960,0xD5,0x7C,Read,ACK
2.8834258000,960,0xD5,0xFF,Read,ACK
2.8834560000,960,0xD5,0x72,Read,ACK
2.8835398000,960,0xD5,0x40,Read,NAK
2.8836064000,962,0xD4,0x20,Write,ACK
2.8836712000,963,0xD5,0x4B,Read,ACK
2.8837016000,963,0xD5,0xFC,Read,ACK
2.8837320000,963,0xD5,0x3E,Read,ACK
2.8837624000,963,0xD5,0x00,Read,ACK
2.8837928000,963,0xD5,0x86,Read,ACK
2.8838234000,963,0xD5,0xFF,Read,ACK
2.8838536000,963,0xD5,0xB8,Read,ACK
2.8838840000,963,0xD5,0xFF,Read,NAK
2.9031486000,965,0xD4,0x1E,Write,ACK
2.9032160000,966,0xD5,0x07,Read,NAK
2.9032824000,968,0xD4,0x28,Write,ACK
2.9033472000,969,0xD5,0xE9,Read,ACK
2.9033774000,969,0xD5,0x00,Read,ACK
2.9034080000,969,0xD5,0x66,Read,ACK
2.9034382000,969,0xD5,0xFF,Read,ACK
2.9034684000,969,0xD5,0x7F,Read,ACK
2.9035450000,969,0xD5,0x40,Read,NAK
2.9036114000,971,0xD4,0x20,Write,ACK
2.9036762000,972,0xD5,0x54,Read,ACK
2.9037066000,972,0xD5,0xFC,Read,ACK
2.9037370000,972,0xD5,0x3D,Read,ACK
2.9037672000,972,0xD5,0x00,Read,ACK
2.9037976000,972,0xD5,0x91,Read,ACK
2.9038280000,972,0xD5,0xFF,Read,ACK
2.9038582000,972,0xD5,0xB0,Read,ACK
2.9038886000,972,0xD5,0xFF,Read,NAK
2.9231472000,974,0xD4,0x1E,Write,ACK
2.9232120000,975,0xD5,0x07,Read,NAK
2.9232784000,977,0xD4,0x28,Write,ACK
2.9233432000,978,0xD5,0xE0,Read,ACK
2.9233736000,978,0xD5,0x00,Read,ACK
2.9234042000,978,0xD5,0x5A,Read,ACK
2.9234346000,978,0xD5,0xFF,Read,ACK
2.9234648000,978,0xD5,0x7A,Read,ACK
2.9235532000,978,0xD5,0x40,Read,NAK
2.9236282000,980,0xD4,0x20,Write,ACK
2.9237002000,981,0xD5,0x54,Read,ACK
2.9237308000,981,0xD5,0xFC,Read,ACK
2.9237618000,981,0xD5,0x7F,Read,ACK
2.9237924000,981,0xD5,0x00,Read,ACK
2.9238230000,981,0xD5,0x48,Read,ACK
2.9238540000,981,0xD5,0xFF,Read,ACK
2.9238844000,981,0xD5,0xB5,Read,ACK
2.9239150000,981,0xD5,0xFF,Read,NAK
2.9431546000,983,0xD4,0x1E,Write,ACK
2.9432234000,984,0xD5,0x07,Read,NAK
2.9432908000,986,0xD4,0x28,Write,ACK
2.9433556000,987,0xD5,0xE1,Read,ACK
2.9433860000,987,0xD5,0x00,Read,ACK
2.9434164000,987,0xD5,0x59,Read,ACK
2.9434470000,987,0xD5,0xFF,Read,ACK
2.9434772000,987,0xD5,0x80,Read,ACK
2.9435558000,987,0xD5,0x40,Read,NAK
2.9436222000,989,0xD4,0x20,Write,ACK
2.9436868000,990,0xD5,0x5A,Read,ACK
2.9437172000,990,0xD5,0xFC,Read,ACK
2.9437476000,990,0xD5,0x4D,Read,ACK
2.9437780000,990,0xD5,0x00,Read,ACK
2.9438084000,990,0xD5,0x79,Read,ACK
2.9438388000,990,0xD5,0xFF,Read,ACK
2.9438692000,990,0xD5,0xB3,Read,ACK
2.9438994000,990,0xD5,0xFF,Read,NAK
2.9631608000,992,0xD4,0x1E,Write,ACK
2.9632254000,993,0xD5,0x07,Read,NAK
2.9632920000,995,0xD4,0x28,Write,ACK
2.9633568000,996,0xD5,0xE0,Read,ACK
2.9633872000,996,0xD5,0x00,Read,ACK
2.9634178000,996,0xD5,0x5A,Read,ACK
2.9634480000,996,0xD5,0xFF,Read,ACK
2.9634784000,996,0xD5,0x74,Read,ACK
2.9635610000,996,0xD5,0x40,Read,NAK
2.9636276000,998,0xD4,0x20,Write,ACK
2.9636922000,999,0xD5,0x47,Read,ACK
2.9637226000,999,0xD5,0xFC,Read,ACK
2.9637530000,999,0xD5,0x43,Read,ACK
2.9637834000,999,0xD5,0x00,Read,ACK
2.9638138000,999,0xD5,0x8D,Read,ACK
2.9638442000,999,0xD5,0xFF,Read,ACK
2.9638746000,999,0xD5,0xB0,Read,ACK
2.9639050000,999,0xD5,0xFF,Read,NAK
2.9831686000,1001,0xD4,0x1E,Write,ACK
2.9832362000,1002,0xD5,0x07,Read,NAK
2.9833036000,1004,0xD4,0x28,Write,ACK
2.9833684000,1005,0xD5,0xDA,Read,ACK
2.9833986000,1005,0xD5,0x00,Read,ACK
2.9834290000,1005,0xD5,0x59,Read,ACK
2.9834594000,1005,0xD5,0xFF,Read,ACK
2.9834896000,1005,0xD5,0x7D,Read,ACK
2.9836018000,1005,0xD5,0x40,Read,NAK
2.9836682000,1007,0xD4,0x20,Write,ACK
2.9837330000,1008,0xD5,0x4F,Read,ACK
2.9837632000,1008,0xD5,0xFC,Read,ACK
2.9837936000,1008,0xD5,0x71,Read,ACK
2.9838240000,1008,0xD5,0x00,Read,ACK
2.9838544000,1008,0xD5,0x46,Read,ACK
2.9838848000,1008,0xD5,0xFF,Read,ACK
2.9839152000,1008,0xD5,0xAF,Read,ACK
2.9839454000,1008,0xD5,0xFF,Read,NAK
3.0031712000,1010,0xD4,0x1E,Write,ACK
3.0032358000,1011,0xD5,0x07,Read,NAK
3.0033022000,1013,0xD4,0x28,Write,ACK
3.0033670000,1014,0xD5,0xDD,Read,ACK
3.0033972000,1014,0xD5,0x00,Read,ACK
3.0034276000,1014,0xD5,0x59,Read,ACK
3.0034580000,1014,0xD5,0xFF,Read,ACK
3.0034884000,1014,0xD5,0x7A,Read,ACK
3.0035718000,1014,0xD5,0x40,Read,NAK
3.0036380000,1016,0xD4,0x20,Write,ACK
3.0037028000,1017,0xD5,0x4D,Read,ACK
3.0037332000,1017,0xD5,0xFC,Read,ACK
3.0037634000,1017,0xD5,0x55,Read,ACK
3.0037938000,1017,0xD5,0x00,Read,ACK
3.0038242000,1017,0xD5,0x71,Read,ACK
3.0038546000,1017,0xD5,0xFF,Read,ACK
3.0038848000,1017,0xD5,0xB4,Read,ACK
3.0039152000,1017,0xD5,0xFF,Read,NAK
3.0231736000,1019,0xD4,0x1E,Write,ACK
3.0232384000,1020,0xD5,0x07,Read,NAK
3.0233048000,1022,0xD4,0x28,Write,ACK
3.0233698000,1023,0xD5,0xE0,Read,ACK
3.0234002000,1023,0xD5,0x00,Read,ACK
3.0234306000,1023,0xD5,0x56,Read,ACK
3.0234610000,1023,0xD5,0xFF,Read,ACK
3.0234914000,1023,0xD5,0x84,Read,ACK
3.0235802000,1023,0xD5,0x40,Read,NAK
3.0236540000,1025,0xD4,0x20,Write,ACK
3.0237260000,1026,0xD5,0x51,Read,ACK
3.0237568000,1026,0xD5,0xFC,Read,ACK
3.0237878000,1026,0xD5,0x69,Read,ACK
3.0238184000,1026,0xD5,0x00,Read,ACK
3.0238490000,1026,0xD5,0x5A,Read,ACK
3.0238802000,1026,0xD5,0xFF,Read,ACK
3.0239108000,1026,0xD5,0xB5,Read,ACK
3.0239412000,1026,0xD5,0xFF,Read,NAK
3.0431806000,1028,0xD4,0x1E,Write,ACK
3.0432480000,1029,0xD5,0x07,Read,NAK
3.0433154000,1031,0xD4,0x28,Write,ACK
3.0433804000,1032,0xD5,0xE5,Read,ACK
3.0434108000,1032,0xD5,0x00,Read,ACK
3.0434412000,1032,0xD5,0x54,Read,ACK
3.0434716000,1032,0xD5,0xFF,Read,ACK
3.0435018000,1032,0xD5,0x84,Read,ACK
3.0435826000,1032,0xD5,0x40,Read,NAK
3.0436492000,1034,0xD4,0x20,Write,ACK
3.0437140000,1035,0xD5,0x5C,Read,ACK
3.0437442000,1035,0xD5,0xFC,Read,ACK
3.0437746000,1035,0xD5,0x5C,Read,ACK
3.0438052000,1035,0xD5,0x00,Read,ACK
3.0438356000,1035,0xD5,0x6A,Read,ACK
3.0438660000,1035,0xD5,0xFF,Read,ACK
3.0438962000,1035,0xD5,0xBA,Read,ACK
3.0439266000,1035,0xD5,0xFF,Read,NAK
3.0631878000,1037,0xD4,0x1E,Write,ACK
3.0632526000,1038,0xD5,0x07,Read,NAK
3.0633190000,1040,0xD4,0x28,Write,ACK
3.0633840000,1041,0xD5,0xE2,Read,ACK
3.0634144000,1041,0xD5,0x00,Read,ACK
3.0634448000,1041,0xD5,0x54,Read,ACK
3.0634752000,1041,0xD5,0xFF,Read,ACK
3.0635054000,1041,0xD5,0x82,Read,ACK
3.0635880000,1041,0xD5,0x40,Read,NAK
3.0636546000,1043,0xD4,0x20,Write,ACK
3.0637194000,1044,0xD5,0x4D,Read,ACK
3.0637498000,1044,0xD5,0xFC,Read,ACK
3.0637802000,1044,0xD5,0x5A,Read,ACK
3.0638106000,1044,0xD5,0x00,Read,ACK
3.0638410000,1044,0xD5,0x61,Read,ACK
3.0638714000,1044,0xD5,0xFF,Read,ACK
3.0639018000,1044,0xD5,0xB8,Read,ACK
3.0639322000,1044,0xD5,0xFF,Read,NAK
3.0831930000,1046,0xD4,0x1E,Write,ACK
3.0832606000,1047,0xD5,0x07,Read,NAK
3.0833280000,1049,0xD4,0x28,Write,ACK
3.0833928000,1050,0xD5,0xDE,Read,ACK
3.0834230000,1050,0xD5,0x00,Read,ACK
3.0834534000,1050,0xD5,0x56,Read,ACK
3.0834838000,1050,0xD5,0xFF,Read,ACK
3.0835140000,1050,0xD5,0x78,Read,ACK
3.0835938000,1050,0xD5,0x40,Read,NAK
3.0836602000,1052,0xD4,0x20,Write,ACK
3.0837248000,1053,0xD5,0x58,Read,ACK
3.0837552000,1053,0xD5,0xFC,Read,ACK
3.0837854000,1053,0xD5,0x54,Read,ACK
3.0838158000,1053,0xD5,0x00,Read,ACK
3.0838462000,1053,0xD5,0x61,Read,ACK
3.0838766000,1053,0xD5,0xFF,Read,ACK
3.0839068000,1053,0xD5,0xB2,Read,ACK
3.0839372000,1053,0xD5,0xFF,Read,NAK
3.1031982000,1055,0xD4,0x1E,Write,ACK
3.1032630000,1056,0xD5,0x07,Read,NAK
3.1033294000,1058,0xD4,0x28,Write,ACK
3.1033942000,1059,0xD5,0xDC,Read,ACK
3.1034246000,1059,0xD5,0x00,Read,ACK
3.1034550000,1059,0xD5,0x57,Read,ACK
3.1034854000,1059,0xD5,0xFF,Read,ACK
3.1035156000,1059,0xD5,0x7D,Read,ACK
3.1035990000,1059,0xD5,0x40,Read,NAK
3.1036654000,1061,0xD4,0x20,Write,ACK
3.1037302000,1062,0xD5,0x4B,Read,ACK
3.1037606000,1062,0xD5,0xFC,Read,ACK
3.1037908000,1062,0xD5,0x52,Read,ACK
3.1038212000,1062,0xD5,0x00,Read,ACK
3.1038516000,1062,0xD5,0x61,Read,ACK
3.1038820000,1062,0xD5,0xFF,Read,ACK
3.1039124000,1062,0xD5,0xAC,Read,ACK
3.1039428000,1062,0xD5,0xFF,Read,NAK
3.1232038000,1064,0xD4,0x1E,Write,ACK
3.1232714000,1065,0xD5,0x07,Read,NAK
3.1233388000,1067,0xD4,0x28,Write,ACK
3.1234036000,1068,0xD5,0xD8,Read,ACK
3.1234340000,1068,0xD5,0x00,Read,ACK
3.1234644000,1068,0xD5,0x52,Read,ACK
3.1234948000,1068,0xD5,0xFF,Read,ACK
3.1235252000,1068,0xD5,0x8C,Read,ACK
3.1236072000,1068,0xD5,0x40,Read,NAK
3.1236814000,1070,0xD4,0x20,Write,ACK
3.1237534000,1071,0xD5,0x4F,Read,ACK
3.1237840000,1071,0xD5,0xFC,Read,ACK
3.1238150000,1071,0xD5,0x4C,Read,ACK
3.1238456000,1071,0xD5,0x00,Read,ACK
3.1238764000,1071,0xD5,0x6B,Read,ACK
3.1239076000,1071,0xD5,0xFF,Read,ACK
3.1239380000,1071,0xD5,0xB0,Read,ACK
3.1239688000,1071,0xD5,0xFF,Read,NAK
3.1432064000,1073,0xD4,0x1E,Write,ACK
3.1432722000,1074,0xD5,0x07,Read,NAK
3.1433388000,1076,0xD4,0x28,Write,ACK
3.1434046000,1077,0xD5,0xD9,Read,ACK
3.1434350000,1077,0xD5,0x00,Read,ACK
3.1434654000,1077,0xD5,0x53,Read,ACK
3.1434958000,1077,0xD5,0xFF,Read,ACK
3.1435260000,1077,0xD5,0x80,Read,ACK
3.1436140000,1077,0xD5,0x40,Read,NAK
3.1436806000,1079,0xD4,0x20,Write,ACK
3.1437454000,1080,0xD5,0x4F,Read,ACK
3.1437758000,1080,0xD5,0xFC,Read,ACK
3.1438060000,1080,0xD5,0x62,Read,ACK
3.1438366000,1080,0xD5,0x00,Read,ACK
3.1438670000,1080,0xD5,0x5A,Read,ACK
3.1438974000,1080,0xD5,0xFF,Read,ACK
3.1439278000,1080,0xD5,0xB1,Read,ACK
3.1439582000,1080,0xD5,0xFF,Read,NAK
3.1632180000,1082,0xD4,0x1E,Write,ACK
3.1632858000,1083,0xD5,0x07,Read,NAK
3.1633524000,1085,0xD4,0x28,Write,ACK
3.1634172000,1086,0xD5,0xE4,Read,ACK
3.1634476000,1086,0xD5,0x00,Read,ACK
3.1634780000,1086,0xD5,0x58,Read,ACK
3.1635084000,1086,0xD5,0xFF,Read,ACK
3.1635386000,1086,0xD5,0x6F,Read,ACK
3.1636154000,1086,0xD5,0x40,Read,NAK
3.1636820000,1088,0xD4,0x20,Write,ACK
3.1637468000,1089,0xD5,0x47,Read,ACK
3.1637770000,1089,0xD5,0xFC,Read,ACK
3.1638074000,1089,0xD5,0x65,Read,ACK
3.1638378000,1089,0xD5,0x00,Read,ACK
3.1638682000,1089,0xD5,0x5C,Read,ACK
3.1638986000,1089,0xD5,0xFF,Read,ACK
3.1639290000,1089,0xD5,0xB9,Read,ACK
3.1639594000,1089,0xD5,0xFF,Read,NAK
3.1832178000,1091,0xD4,0x1E,Write,ACK
3.1832826000,1092,0xD5,0x07,Read,NAK
3.1833492000,1094,0xD4,0x28,Write,ACK
3.1834142000,1095,0xD5,0xF0,Read,ACK
3.1834444000,1095,0xD5,0x00,Read,ACK
3.1834750000,1095,0xD5,0x5F,Read,ACK
3.1835052000,1095,0xD5,0xFF,Read,ACK
3.1835356000,1095,0xD5,0x72,Read,ACK
3.1836206000,1095,0xD5,0x40,Read,NAK
3.1836872000,1097,0xD4,0x20,Write,ACK
3.1837520000,1098,0xD5,0x54,Read,ACK
3.1837824000,1098,0xD5,0xFC,Read,ACK
3.1838128000,1098,0xD5,0x62,Read,ACK
3.1838432000,1098,0xD5,0x00,Read,ACK
3.1838736000,1098,0xD5,0x5F,Read,ACK
3.1839040000,1098,0xD5,0xFF,Read,ACK
3.1839344000,1098,0xD5,0xB3,Read,ACK
3.1839648000,1098,0xD5,0xFF,Read,NAK
3.2032240000,1100,0xD4,0x1E,Write,ACK
3.2032886000,1101,0xD5,0x07,Read,NAK
3.2033552000,1103,0xD4,0x28,Write,ACK
3.2034200000,1104,0xD5,0xE8,Read,ACK
3.2034504000,1104,0xD5,0x00,Read,ACK
3.2034808000,1104,0xD5,0x5A,Read,ACK
3.2035112000,1104,0xD5,0xFF,Read,ACK
3.2035414000,1104,0xD5,0x8C,Read,ACK
3.2036260000,1104,0xD5,0x40,Read,NAK
3.2036926000,1106,0xD4,0x20,Write,ACK
3.2037574000,1107,0xD5,0x54,Read,ACK
3.2037878000,1107,0xD5,0xFC,Read,ACK
3.2038182000,1107,0xD5,0x47,Read,ACK
3.2038486000,1107,0xD5,0x00,Read,ACK
3.2038790000,1107,0xD5,0x8C,Read,ACK
3.2039094000,1107,0xD5,0xFF,Read,ACK
3.2039398000,1107,0xD5,0xB6,Read,ACK
3.2039700000,1107,0xD5,0xFF,Read,NAK
3.2232292000,1109,0xD4,0x1E,Write,ACK
3.2232970000,1110,0xD5,0x07,Read,NAK
3.2233634000,1112,0xD4,0x28,Write,ACK
3.2234282000,1113,0xD5,0xDA,Read,ACK
3.2234586000,1113,0xD5,0x00,Read,ACK
3.2234890000,1113,0xD5,0x57,Read,ACK
3.2235196000,1113,0xD5,0xFF,Read,ACK
3.2235498000,1113,0xD5,0x95,Read,ACK
3.2236336000,1113,0xD5,0x40,Read,NAK
3.2237070000,1115,0xD4,0x20,Write,ACK
3.2237798000,1116,0xD5,0x4B,Read,ACK
3.2238104000,1116,0xD5,0xFC,Read,ACK
3.2238416000,1116,0xD5,0x63,Read,ACK
3.2238722000,1116,0xD5,0x00,Read,ACK
3.2239028000,1116,0xD5,0x61,Read,ACK
3.2239344000,1116,0xD5,0xFF,Read,ACK
3.2239650000,1116,0xD5,0xAC,Read,ACK
3.2239956000,1116,0xD5,0xFF,Read,NAK
3.2432322000,1118,0xD4,0x1E,Write,ACK
3.2432980000,1119,0xD5,0x07,Read,NAK
3.2433646000,1121,0xD4,0x28,Write,ACK
3.2434306000,1122,0xD5,0xE2,Read,ACK
3.2434610000,1122,0xD5,0x00,Read,ACK
3.2434914000,1122,0xD5,0x5C,Read,ACK
3.2435218000,1122,0xD5,0xFF,Read,ACK
3.2435522000,1122,0xD5,0x6E,Read,ACK
3.2436362000,1122,0xD5,0x40,Read,NAK
3.2437028000,1124,0xD4,0x20,Write,ACK
3.2437676000,1125,0xD5,0x54,Read,ACK
3.2437980000,1125,0xD5,0xFC,Read,ACK
3.2438284000,1125,0xD5,0x5B,Read,ACK
3.2438588000,1125,0xD5,0x00,Read,ACK
3.2438894000,1125,0xD5,0x60,Read,ACK
3.2439198000,1125,0xD5,0xFF,Read,ACK
3.2439500000,1125,0xD5,0xAE,Read,ACK
3.2439804000,1125,0xD5,0xFF,Read,NAK
3.2632434000,1127,0xD4,0x1E,Write,ACK
3.2633110000,1128,0xD5,0x07,Read,NAK
3.2633776000,1130,0xD4,0x28,Write,ACK
3.2634424000,1131,0xD5,0xEA,Read,ACK
3.2634726000,1131,0xD5,0x00,Read,ACK
3.2635032000,1131,0xD5,0x58,Read,ACK
3.2635336000,1131,0xD5,0xFF,Read,ACK
3.2635638000,1131,0xD5,0x82,Read,ACK
3.2636412000,1131,0xD5,0x40,Read,NAK
3.2637076000,1133,0xD4,0x20,Write,ACK
3.2637724000,1134,0xD5,0x56,Read,ACK
3.2638028000,1134,0xD5,0xFC,Read,ACK
3.2638332000,1134,0xD5,0x58,Read,ACK
3.2638636000,1134,0xD5,0x00,Read,ACK
3.2638940000,1134,0xD5,0x6A,Read,ACK
3.2639246000,1134,0xD5,0xFF,Read,ACK
3.2639550000,1134,0xD5,0xA9,Read,ACK
3.2639854000,1134,0xD5,0xFF,Read,NAK
3.2832438000,1136,0xD4,0x1E,Write,ACK
3.2833088000,1137,0xD5,0x07,Read,NAK
3.2833752000,1139,0xD4,0x28,Write,ACK
3.2834400000,1140,0xD5,0xEE,Read,ACK
3.2834704000,1140,0xD5,0x00,Read,ACK
3.2835010000,1140,0xD5,0x5A,Read,ACK
3.2835314000,1140,0xD5,0xFF,Read,ACK
3.2835616000,1140,0xD5,0x90,Read,ACK
3.2836460000,1140,0xD5,0x40,Read,NAK
3.2837126000,1142,0xD4,0x20,Write,ACK
3.2837774000,1143,0xD5,0x54,Read,ACK
3.2838078000,1143,0xD5,0xFC,Read,ACK
3.2838382000,1143,0xD5,0x5E,Read,ACK
3.2838686000,1143,0xD5,0x00,Read,ACK
3.2838990000,1143,0xD5,0x65,Read,ACK
3.2839294000,1143,0xD5,0xFF,Read,ACK
3.2839598000,1143,0xD5,0xA5,Read,ACK
3.2839902000,1143,0xD5,0xFF,Read,NAK
3.3032558000,1145,0xD4,0x1E,Write,ACK
3.3033234000,1146,0xD5,0x07,Read,NAK
3.3033898000,1148,0xD4,0x28,Write,ACK
3.3034546000,1149,0xD5,0xED,Read,ACK
3.3034848000,1149,0xD5,0x00,Read,ACK
3.3035152000,1149,0xD5,0x59,Read,ACK
3.3035456000,1149,0xD5,0xFF,Read,ACK
3.3035758000,1149,0xD5,0x7D,Read,ACK
3.3036598000,1149,0xD5,0x40,Read,NAK
3.3037262000,1151,0xD4,0x20,Write,ACK
3.3037910000,1152,0xD5,0x5A,Read,ACK
3.3038214000,1152,0xD5,0xFC,Read,ACK
3.3038516000,1152,0xD5,0x5C,Read,ACK
3.3038822000,1152,0xD5,0x00,Read,ACK
3.3039126000,1152,0xD5,0x64,Read,ACK
3.3039430000,1152,0xD5,0xFF,Read,ACK
3.3039732000,1152,0xD5,0xA7,Read,ACK
3.3040036000,1152,0xD5,0xFF,Read,NAK
3.3232528000,1154,0xD4,0x1E,Write,ACK
3.3233174000,1155,0xD5,0x07,Read,NAK
3.3233840000,1157,0xD4,0x28,Write,ACK
3.3234490000,1158,0xD5,0xE5,Read,ACK
3.3234794000,1158,0xD5,0x00,Read,ACK
3.3235100000,1158,0xD5,0x56,Read,ACK
3.3235402000,1158,0xD5,0xFF,Read,ACK
3.3235706000,1158,0xD5,0x76,Read,ACK
3.3236594000,1158,0xD5,0x40,Read,NAK
3.3237344000,1160,0xD4,0x20,Write,ACK
3.3238064000,1161,0xD5,0x54,Read,ACK
3.3238370000,1161,0xD5,0xFC,Read,ACK
3.3238682000,1161,0xD5,0x55,Read,ACK
3.3238988000,1161,0xD5,0x00,Read,ACK
3.3239296000,1161,0xD5,0x6C,Read,ACK
3.3239604000,1161,0xD5,0xFF,Read,ACK
3.3239910000,1161,0xD5,0xB2,Read,ACK
3.3240216000,1161,0xD5,0xFF,Read,NAK
3.3432600000,1163,0xD4,0x1E,Write,ACK
3.3433288000,1164,0xD5,0x07,Read,NAK
3.3433962000,1166,0xD4,0x28,Write,ACK
3.3434612000,1167,0xD5,0xDD,Read,ACK
3.3434914000,1167,0xD5,0x00,Read,ACK
3.3435220000,1167,0xD5,0x57,Read,ACK
3.3435522000,1167,0xD5,0xFF,Read,ACK
3.3435826000,1167,0xD5,0x85,Read,ACK
3.3436620000,1167,0xD5,0x40,Read,NAK
3.3437286000,1169,0xD4,0x20,Write,ACK
3.3437934000,1170,0xD5,0x5D,Read,ACK
3.3438238000,1170,0xD5,0xFC,Read,ACK
3.3438540000,1170,0xD5,0x5B,Read,ACK
3.3438844000,1170,0xD5,0x00,Read,ACK
3.3439148000,1170,0xD5,0x70,Read,ACK
3.3439452000,1170,0xD5,0xFF,Read,ACK
3.3439754000,1170,0xD5,0xAC,Read,ACK
3.3440058000,1170,0xD5,0xFF,Read,NAK
3.3632662000,1172,0xD4,0x1E,Write,ACK
3.3633310000,1173,0xD5,0x07,Read,NAK
3.3633974000,1175,0xD4,0x28,Write,ACK
3.3634624000,1176,0xD5,0xDE,Read,ACK
3.3634928000,1176,0xD5,0x00,Read,ACK
3.3635232000,1176,0xD5,0x56,Read,ACK
3.3635536000,1176,0xD5,0xFF,Read,ACK
3.3635840000,1176,0xD5,0x86,Read,ACK
3.3636672000,1176,0xD5,0x40,Read,NAK
3.3637336000,1178,0xD4,0x20,Write,ACK
3.3637986000,1179,0xD5,0x50,Read,ACK
3.3638290000,1179,0xD5,0xFC,Read,ACK
3.3638592000,1179,0xD5,0x64,Read,ACK
3.3638896000,1179,0xD5,0x00,Read,ACK
3.3639202000,1179,0xD5,0x57,Read,ACK
3.3639506000,1179,0xD5,0xFF,Read,ACK
3.3639808000,1179,0xD5,0xA7,Read,ACK
3.3640112000,1179,0xD5,0xFF,Read,NAK
3.3832694000,1181,0xD4,0x1E,Write,ACK
3.3833344000,1182,0xD5,0x07,Read,NAK
3.3834008000,1184,0xD4,0x28,Write,ACK
3.3834658000,1185,0xD5,0xE4,Read,ACK
3.3834962000,1185,0xD5,0x00,Read,ACK
3.3835266000,1185,0xD5,0x55,Read,ACK
3.3835570000,1185,0xD5,0xFF,Read,ACK
3.3835874000,1185,0xD5,0x78,Read,ACK
3.3836722000,1185,0xD5,0x40,Read,NAK
3.3837388000,1187,0xD4,0x20,Write,ACK
3.3838038000,1188,0xD5,0x61,Read,ACK
3.3838342000,1188,0xD5,0xFC,Read,ACK
3.3838646000,1188,0xD5,0x60,Read,ACK
3.3838950000,1188,0xD5,0x00,Read,ACK
3.3839254000,1188,0xD5,0x5B,Read,ACK
3.3839558000,1188,0xD5,0xFF,Read,ACK
3.3839862000,1188,0xD5,0xA3,Read,ACK
3.3840164000,1188,0xD5,0xFF,Read,NAK
3.4032786000,1190,0xD4,0x1E,Write,ACK
3.4033462000,1191,0xD5,0x07,Read,NAK
3.4034136000,1193,0xD4,0x28,Write,ACK
3.4034784000,1194,0xD5,0xE6,Read,ACK
3.4035088000,1194,0xD5,0x00,Read,ACK
3.4035392000,1194,0xD5,0x56,Read,ACK
3.4035696000,1194,0xD5,0xFF,Read,ACK
3.4035998000,1194,0xD5,0x77,Read,ACK
3.4036778000,1194,0xD5,0x40,Read,NAK
3.4037442000,1196,0xD4,0x20,Write,ACK
3.4038090000,1197,0xD5,0x59,Read,ACK
3.4038394000,1197,0xD5,0xFC,Read,ACK
3.4038696000,1197,0xD5,0x60,Read,ACK
3.4039000000,1197,0xD5,0x00,Read,ACK
3.4039304000,1197,0xD5,0x66,Read,ACK
3.4039608000,1197,0xD5,0xFF,Read,ACK
3.4039910000,1197,0xD5,0xA5,Read,ACK
3.4040214000,1197,0xD5,0xFF,Read,NAK
3.4232790000,1199,0xD4,0x1E,Write,ACK
3.4233438000,1200,0xD5,0x07,Read,NAK
3.4234104000,1202,0xD4,0x28,Write,ACK
3.4234752000,1203,0xD5,0xE4,Read,ACK
3.4235056000,1203,0xD5,0x00,Read,ACK
3.4235362000,1203,0xD5,0x58,Read,ACK
3.4235666000,1203,0xD5,0xFF,Read,ACK
3.4235968000,1203,0xD5,0x78,Read,ACK
3.4236900000,1203,0xD5,0x40,Read,NAK
3.4237642000,1205,0xD4,0x20,Write,ACK
3.4238344000,1206,0xD5,0x58,Read,ACK
3.4238650000,1206,0xD5,0xFC,Read,ACK
3.4238962000,1206,0xD5,0x5D,Read,ACK
3.4239268000,1206,0xD5,0x00,Read,ACK
3.4239576000,1206,0xD5,0x61,Read,ACK
3.4239890000,1206,0xD5,0xFF,Read,ACK
3.4240196000,1206,0xD5,0xA4,Read,ACK
3.4240502000,1206,0xD5,0xFF,Read,NAK
3.4432866000,1208,0xD4,0x1E,Write,ACK
3.4433540000,1209,0xD5,0x07,Read,NAK
3.4434214000,1211,0xD4,0x28,Write,ACK
3.4434864000,1212,0xD5,0xDB,Read,ACK
3.4435166000,1212,0xD5,0x00,Read,ACK
3.4435472000,1212,0xD5,0x55,Read,ACK
3.4435774000,1212,0xD5,0xFF,Read,ACK
3.4436078000,1212,0xD5,0x7E,Read,ACK
3.4436882000,1212,0xD5,0x40,Read,NAK
3.4437546000,1214,0xD4,0x20,Write,ACK
3.4438194000,1215,0xD5,0x61,Read,ACK
3.4438498000,1215,0xD5,0xFC,Read,ACK
3.4438802000,1215,0xD5,0x4F,Read,ACK
3.4439106000,1215,0xD5,0x00,Read,ACK
3.4439410000,1215,0xD5,0x77,Read,ACK
3.4439714000,1215,0xD5,0xFF,Read,ACK
3.4440018000,1215,0xD5,0xA4,Read,ACK
3.4440322000,1215,0xD5,0xFF,Read,NAK
3.4632926000,1217,0xD4,0x1E,Write,ACK
3.4633574000,1218,0xD5,0x07,Read,NAK
3.4634238000,1220,0xD4,0x28,Write,ACK
3.4634886000,1221,0xD5,0xD5,Read,ACK
3.4635190000,1221,0xD5,0x00,Read,ACK
3.4635494000,1221,0xD5,0x51,Read,ACK
3.4635798000,1221,0xD5,0xFF,Read,ACK
3.4636104000,1221,0xD5,0x80,Read,ACK
3.4637242000,1221,0xD5,0x40,Read,NAK
3.4637906000,1223,0xD4,0x20,Write,ACK
3.4638556000,1224,0xD5,0x52,Read,ACK
3.4638860000,1224,0xD5,0xFC,Read,ACK
3.4639164000,1224,0xD5,0x5D,Read,ACK
3.4639468000,1224,0xD5,0x00,Read,ACK
3.4639772000,1224,0xD5,0x65,Read,ACK
3.4640076000,1224,0xD5,0xFF,Read,ACK
3.4640380000,1224,0xD5,0xA6,Read,ACK
3.4640684000,1224,0xD5,0xFF,Read,NAK
3.4833004000,1226,0xD4,0x1E,Write,ACK
3.4833680000,1227,0xD5,0x07,Read,NAK
3.4834354000,1229,0xD4,0x28,Write,ACK
3.4835002000,1230,0xD5,0xD7,Read,ACK
3.4835304000,1230,0xD5,0x00,Read,ACK
3.4835610000,1230,0xD5,0x56,Read,ACK
3.4835912000,1230,0xD5,0xFF,Read,ACK
3.4836214000,1230,0xD5,0x83,Read,ACK
3.4836990000,1230,0xD5,0x40,Read,NAK
3.4837654000,1232,0xD4,0x20,Write,ACK
3.4838302000,1233,0xD5,0x5D,Read,ACK
3.4838606000,1233,0xD5,0xFC,Read,ACK
3.4838908000,1233,0xD5,0x58,Read,ACK
3.4839212000,1233,0xD5,0x00,Read,ACK
3.4839516000,1233,0xD5,0x6E,Read,ACK
3.4839820000,1233,0xD5,0xFF,Read,ACK
3.4840122000,1233,0xD5,0xAC,Read,ACK
3.4840426000,1233,0xD5,0xFF,Read,NAK
3.5033030000,1235,0xD4,0x1E,Write,ACK
3.5033676000,1236,0xD5,0x07,Read,NAK
3.5034340000,1238,0xD4,0x28,Write,ACK
3.5034990000,1239,0xD5,0xD8,Read,ACK
3.5035292000,1239,0xD5,0x00,Read,ACK
3.5035596000,1239,0xD5,0x59,Read,ACK
3.5035900000,1239,0xD5,0xFF,Read,ACK
3.5036202000,1239,0xD5,0x84,Read,ACK
3.5037042000,1239,0xD5,0x40,Read,NAK
3.5037708000,1241,0xD4,0x20,Write,ACK
3.5038354000,1242,0xD5,0x5B,Read,ACK
3.5038658000,1242,0xD5,0xFC,Read,ACK
3.5038960000,1242,0xD5,0x60,Read,ACK
3.5039264000,1242,0xD5,0x00,Read,ACK
3.5039568000,1242,0xD5,0x5B,Read,ACK
3.5039872000,1242,0xD5,0xFF,Read,ACK
3.5040176000,1242,0xD5,0xAC,Read,ACK
3.5040480000,1242,0xD5,0xFF,Read,NAK
3.5233092000,1244,0xD4,0x1E,Write,ACK
3.5233768000,1245,0xD5,0x07,Read,NAK
3.5234442000,1247,0xD4,0x28,Write,ACK
3.5235092000,1248,0xD5,0xDC,Read,ACK
3.5235396000,1248,0xD5,0x00,Read,ACK
3.5235700000,1248,0xD5,0x58,Read,ACK
3.5236004000,1248,0xD5,0xFF,Read,ACK
3.5236308000,1248,0xD5,0x86,Read,ACK
3.5237122000,1248,0xD5,0x40,Read,NAK
3.5237864000,1250,0xD4,0x20,Write,ACK
3.5238586000,1251,0xD5,0x58,Read,ACK
3.5238894000,1251,0xD5,0xFC,Read,ACK
3.5239198000,1251,0xD5,0x61,Read,ACK
3.5239506000,1251,0xD5,0x00,Read,ACK
3.5239812000,1251,0xD5,0x64,Read,ACK
3.5240118000,1251,0xD5,0xFF,Read,ACK
3.5240424000,1251,0xD5,0xB1,Read,ACK
3.5240730000,1251,0xD5,0xFF,Read,NAK
3.5433114000,1253,0xD4,0x1E,Write,ACK
3.5433770000,1254,0xD5,0x07,Read,NAK
3.5434436000,1256,0xD4,0x28,Write,ACK
3.5435094000,1257,0xD5,0xD6,Read,ACK
3.5435398000,1257,0xD5,0x00,Read,ACK
3.5435702000,1257,0xD5,0x54,Read,ACK
3.5436006000,1257,0xD5,0xFF,Read,ACK
3.5436310000,1257,0xD5,0x84,Read,ACK
3.5437192000,1257,0xD5,0x40,Read,NAK
3.5437856000,1259,0xD4,0x20,Write,ACK
3.5438504000,1260,0xD5,0x5A,Read,ACK
3.5438808000,1260,0xD5,0xFC,Read,ACK
3.5439112000,1260,0xD5,0x5D,Read,ACK
3.5439416000,1260,0xD5,0x00,Read,ACK
3.5439720000,1260,0xD5,0x63,Read,ACK
3.5440024000,1260,0xD5,0xFF,Read,ACK
3.5440328000,1260,0xD5,0xAE,Read,ACK
3.5440632000,1260,0xD5,0xFF,Read,NAK
3.5633206000,1262,0xD4,0x1E,Write,ACK
3.5633852000,1263,0xD5,0x07,Read,NAK
3.5634518000,1265,0xD4,0x28,Write,ACK
3.5635166000,1266,0xD5,0xCE,Read,ACK
3.5635470000,1266,0xD5,0x00,Read,ACK
3.5635774000,1266,0xD5,0x50,Read,ACK
3.5636078000,1266,0xD5,0xFF,Read,ACK
3.5636382000,1266,0xD5,0x7E,Read,ACK
3.5637198000,1266,0xD5,0x40,Read,NAK
3.5637864000,1268,0xD4,0x20,Write,ACK
3.5638512000,1269,0xD5,0x5A,Read,ACK
3.5638816000,1269,0xD5,0xFC,Read,ACK
3.5639120000,1269,0xD5,0x55,Read,ACK
3.5639424000,1269,0xD5,0x00,Read,ACK
3.5639730000,1269,0xD5,0x6D,Read,ACK
3.5640034000,1269,0xD5,0xFF,Read,ACK
3.5640338000,1269,0xD5,0xB0,Read,ACK
3.5640642000,1269,0xD5,0xFF,Read,NAK
3.5833248000,1271,0xD4,0x1E,Write,ACK
3.5833924000,1272,0xD5,0x07,Read,NAK
3.5834598000,1274,0xD4,0x28,Write,ACK
3.5835246000,1275,0xD5,0xCD,Read,ACK
3.5835550000,1275,0xD5,0x00,Read,ACK
3.5835854000,1275,0xD5,0x50,Read,ACK
3.5836158000,1275,0xD5,0xFF,Read,ACK
3.5836460000,1275,0xD5,0x88,Read,ACK
3.5837294000,1275,0xD5,0x40,Read,NAK
3.5837958000,1277,0xD4,0x20,Write,ACK
3.5838606000,1278,0xD5,0x5C,Read,ACK
3.5838910000,1278,0xD5,0xFC,Read,ACK
3.5839212000,1278,0xD5,0x5D,Read,ACK
3.5839516000,1278,0xD5,0x00,Read,ACK
3.5839820000,1278,0xD5,0x61,Read,ACK
3.5840124000,1278,0xD5,0xFF,Read,ACK
3.5840426000,1278,0xD5,0xB1,Read,ACK
3.5840730000,1278,0xD5,0xFF,Read,NAK
3.6033300000,1280,0xD4,0x1E,Write,ACK
3.6033948000,1281,0xD5,0x07,Read,NAK
3.6034612000,1283,0xD4,0x28,Write,ACK
3.6035260000,1284,0xD5,0xD8,Read,ACK
3.6035564000,1284,0xD5,0x00,Read,ACK
3.6035868000,1284,0xD5,0x52,Read,ACK
3.6036172000,1284,0xD5,0xFF,Read,ACK
3.6036476000,1284,0xD5,0x8A,Read,ACK
3.6037352000,1284,0xD5,0x40,Read,NAK
3.6038016000,1286,0xD4,0x20,Write,ACK
3.6038664000,1287,0xD5,0x5D,Read,ACK
3.6038968000,1287,0xD5,0xFC,Read,ACK
3.6039270000,1287,0xD5,0x68,Read,ACK
3.6039574000,1287,0xD5,0x00,Read,ACK
3.6039878000,1287,0xD5,0x52,Read,ACK
3.6040182000,1287,0xD5,0xFF,Read,ACK
3.6040486000,1287,0xD5,0xB3,Read,ACK
3.6040788000,1287,0xD5,0xFF,Read,NAK
3.6233338000,1289,0xD4,0x1E,Write,ACK
3.6234014000,1290,0xD5,0x07,Read,NAK
3.6234690000,1292,0xD4,0x28,Write,ACK
3.6235338000,1293,0xD5,0xDF,Read,ACK
3.6235642000,1293,0xD5,0x00,Read,ACK
3.6235946000,1293,0xD5,0x54,Read,ACK
3.6236250000,1293,0xD5,0xFF,Read,ACK
3.6236554000,1293,0xD5,0x82,Read,ACK
3.6237434000,1293,0xD5,0x40,Read,NAK
3.6238168000,1295,0xD4,0x20,Write,ACK
3.6238896000,1296,0xD5,0x62,Read,ACK
3.6239204000,1296,0xD5,0xFC,Read,ACK
3.6239508000,1296,0xD5,0x63,Read,ACK
3.6239814000,1296,0xD5,0x00,Read,ACK
3.6240122000,1296,0xD5,0x63,Read,ACK
3.6240428000,1296,0xD5,0xFF,Read,ACK
3.6240738000,1296,0xD5,0xB4,Read,ACK
3.6241044000,1296,0xD5,0xFF,Read,NAK
3.6433382000,1298,0xD4,0x1E,Write,ACK
3.6434040000,1299,0xD5,0x07,Read,NAK
3.6434704000,1301,0xD4,0x28,Write,ACK
3.6435364000,1302,0xD5,0xE0,Read,ACK
3.6435668000,1302,0xD5,0x00,Read,ACK
3.6435972000,1302,0xD5,0x56,Read,ACK
3.6436276000,1302,0xD5,0xFF,Read,ACK
3.6436578000,1302,0xD5,0x84,Read,ACK
3.6437466000,1302,0xD5,0x40,Read,NAK
3.6438132000,1304,0xD4,0x20,Write,ACK
3.6438780000,1305,0xD5,0x5C,Read,ACK
3.6439084000,1305,0xD5,0xFC,Read,ACK
3.6439388000,1305,0xD5,0x65,Read,ACK
3.6439692000,1305,0xD5,0x00,Read,ACK
3.6439996000,1305,0xD5,0x68,Read,ACK
3.6440300000,1305,0xD5,0xFF,Read,ACK
3.6440604000,1305,0xD5,0xA8,Read,ACK
3.6440908000,1305,0xD5,0xFF,Read,NAK
3.6633556000,1307,0xD4,0x1E,Write,ACK
3.6634260000,1308,0xD5,0x07,Read,NAK
3.6634934000,1310,0xD4,0x28,Write,ACK
3.6635584000,1311,0xD5,0xDF,Read,ACK
3.6635886000,1311,0xD5,0x00,Read,ACK
3.6636190000,1311,0xD5,0x56,Read,ACK
3.6636494000,1311,0xD5,0xFF,Read,ACK
3.6636798000,1311,0xD5,0x88,Read,ACK
3.6637642000,1311,0xD5,0x40,Read,NAK
3.6638308000,1313,0xD4,0x20,Write,ACK
3.6638954000,1314,0xD5,0x5E,Read,ACK
3.6639258000,1314,0xD5,0xFC,Read,ACK
3.6639562000,1314,0xD5,0x5F,Read,ACK
3.6639864000,1314,0xD5,0x00,Read,ACK
3.6640170000,1314,0xD5,0x66,Read,ACK
3.6640474000,1314,0xD5,0xFF,Read,ACK
3.6640776000,1314,0xD5,0xA4,Read,ACK
3.6641082000,1314,0xD5,0xFF,Read,NAK
3.6833492000,1316,0xD4,0x1E,Write,ACK
3.6834140000,1317,0xD5,0x07,Read,NAK
3.6834806000,1319,0xD4,0x28,Write,ACK
3.6835454000,1320,0xD5,0xDE,Read,ACK
3.6835758000,1320,0xD5,0x00,Read,ACK
3.6836062000,1320,0xD5,0x54,Read,ACK
3.6836366000,1320,0xD5,0xFF,Read,ACK
3.6836670000,1320,0xD5,0x88,Read,ACK
3.6837674000,1320,0xD5,0x40,Read,NAK
3.6838340000,1322,0xD4,0x20,Write,ACK
3.6838988000,1323,0xD5,0x62,Read,ACK
3.6839292000,1323,0xD5,0xFC,Read,ACK
3.6839596000,1323,0xD5,0x5A,Read,ACK
3.6839900000,1323,0xD5,0x00,Read,ACK
3.6840206000,1323,0xD5,0x61,Read,ACK
3.6840510000,1323,0xD5,0xFF,Read,ACK
3.6840812000,1323,0xD5,0xAD,Read,ACK
3.6841116000,1323,0xD5,0xFF,Read,NAK
3.7033594000,1325,0xD4,0x1E,Write,ACK
3.7034268000,1326,0xD5,0x07,Read,NAK
3.7034932000,1328,0xD4,0x28,Write,ACK
3.7035580000,1329,0xD5,0xDE,Read,ACK
3.7035884000,1329,0xD5,0x00,Read,ACK
3.7036188000,1329,0xD5,0x54,Read,ACK
3.7036490000,1329,0xD5,0xFF,Read,ACK
3.7036794000,1329,0xD5,0x86,Read,ACK
3.7037728000,1329,0xD5,0x40,Read,NAK
3.7038392000,1331,0xD4,0x20,Write,ACK
3.7039040000,1332,0xD5,0x60,Read,ACK
3.7039344000,1332,0xD5,0xFC,Read,ACK
3.7039648000,1332,0xD5,0x58,Read,ACK
3.7039952000,1332,0xD5,0x00,Read,ACK
3.7040256000,1332,0xD5,0x62,Read,ACK
3.7040560000,1332,0xD5,0xFF,Read,ACK
3.7040864000,1332,0xD5,0xB1,Read,ACK
3.7041166000,1332,0xD5,0xFF,Read,NAK
3.7233600000,1334,0xD4,0x1E,Write,ACK
3.7234248000,1335,0xD5,0x07,Read,NAK
3.7234912000,1337,0xD4,0x28,Write,ACK
3.7235560000,1338,0xD5,0xDE,Read,ACK
3.7235864000,1338,0xD5,0x00,Read,ACK
3.7236168000,1338,0xD5,0x54,Read,ACK
3.7236472000,1338,0xD5,0xFF,Read,ACK
3.7236776000,1338,0xD5,0x86,Read,ACK
3.7237782000,1338,0xD5,0x40,Read,NAK
3.7238514000,1340,0xD4,0x20,Write,ACK
3.7239248000,1341,0xD5,0x60,Read,ACK
3.7239554000,1341,0xD5,0xFC,Read,ACK
3.7239888000,1341,0xD5,0x5F,Read,ACK
3.7240242000,1341,0xD5,0x00,Read,ACK
3.7240548000,1341,0xD5,0x5F,Read,ACK
3.7240854000,1341,0xD5,0xFF,Read,ACK
3.7241168000,1341,0xD5,0xAF,Read,ACK
3.7241486000,1341,0xD5,0xFF,Read,NAK
3.7433710000,1343,0xD4,0x1E,Write,ACK
3.7434554000,1344,0xD5,0x07,Read,NAK
3.7435240000,1346,0xD4,0x28,Write,ACK
3.7435888000,1347,0xD5,0xDC,Read,ACK
3.7436192000,1347,0xD5,0x00,Read,ACK
3.7436496000,1347,0xD5,0x56,Read,ACK
3.7436800000,1347,0xD5,0xFF,Read,ACK
3.7437846000,1347,0xD5,0x88,Read,ACK
3.7438152000,1347,0xD5,0x40,Read,NAK
3.7438816000,1349,0xD4,0x20,Write,ACK
3.7439464000,1350,0xD5,0x64,Read,ACK
3.7439770000,1350,0xD5,0xFC,Read,ACK
3.7440074000,1350,0xD5,0x5E,Read,ACK
3.7440378000,1350,0xD5,0x00,Read,ACK
3.7440682000,1350,0xD5,0x5F,Read,ACK
3.7440986000,1350,0xD5,0xFF,Read,ACK
3.7441288000,1350,0xD5,0xB2,Read,ACK
3.7441592000,1350,0xD5,0xFF,Read,NAK
3.7633750000,1352,0xD4,0x1E,Write,ACK
3.7634454000,1353,0xD5,0x07,Read,NAK
3.7635138000,1355,0xD4,0x28,Write,ACK
3.7635786000,1356,0xD5,0xD9,Read,ACK
3.7636090000,1356,0xD5,0x00,Read,ACK
3.7636394000,1356,0xD5,0x57,Read,ACK
3.7636698000,1356,0xD5,0xFF,Read,ACK
3.7637000000,1356,0xD5,0x85,Read,ACK
3.7637864000,1356,0xD5,0x40,Read,NAK
3.7638530000,1358,0xD4,0x20,Write,ACK
3.7639178000,1359,0xD5,0x5E,Read,ACK
3.7639480000,1359,0xD5,0xFC,Read,ACK
3.7639784000,1359,0xD5,0x5B,Read,ACK
3.7640088000,1359,0xD5,0x00,Read,ACK
3.7640392000,1359,0xD5,0x5D,Read,ACK
3.7640696000,1359,0xD5,0xFF,Read,ACK
3.7641000000,1359,0xD5,0xB6,Read,ACK
3.7641304000,1359,0xD5,0xFF,Read,NAK
3.7833794000,1361,0xD4,0x1E,Write,ACK
3.7834442000,1362,0xD5,0x07,Read,NAK
3.7835106000,1364,0xD4,0x28,Write,ACK
3.7835756000,1365,0xD5,0xE0,Read,ACK
3.7836060000,1365,0xD5,0x00,Read,ACK
3.7836364000,1365,0xD5,0x5C,Read,ACK
3.7836668000,1365,0xD5,0xFF,Read,ACK
3.7836972000,1365,0xD5,0x8A,Read,ACK
3.7837910000,1365,0xD5,0x40,Read,NAK
3.7838576000,1367,0xD4,0x20,Write,ACK
3.7839224000,1368,0xD5,0x66,Read,ACK
3.7839528000,1368,0xD5,0xFC,Read,ACK
3.7839832000,1368,0xD5,0x63,Read,ACK
3.7840136000,1368,0xD5,0x00,Read,ACK
3.7840442000,1368,0xD5,0x60,Read,ACK
3.7840746000,1368,0xD5,0xFF,Read,ACK
3.7841048000,1368,0xD5,0xB4,Read,ACK
3.7841352000,1368,0xD5,0xFF,Read,NAK
3.8033830000,1370,0xD4,0x1E,Write,ACK
3.8034506000,1371,0xD5,0x07,Read,NAK
3.8035170000,1373,0xD4,0x28,Write,ACK
3.8035818000,1374,0xD5,0xDE,Read,ACK
3.8036120000,1374,0xD5,0x00,Read,ACK
3.8036424000,1374,0xD5,0x5E,Read,ACK
3.8036728000,1374,0xD5,0xFF,Read,ACK
3.8037030000,1374,0xD5,0x89,Read,ACK
3.8037960000,1374,0xD5,0x40,Read,NAK
3.8038626000,1376,0xD4,0x20,Write,ACK
3.8039274000,1377,0xD5,0x62,Read,ACK
3.8039578000,1377,0xD5,0xFC,Read,ACK
3.8039880000,1377,0xD5,0x56,Read,ACK
3.8040184000,1377,0xD5,0x00,Read,ACK
3.8040488000,1377,0xD5,0x6A,Read,ACK
3.8040792000,1377,0xD5,0xFF,Read,ACK
3.8041094000,1377,0xD5,0xAB,Read,ACK
3.8041398000,1377,0xD5,0xFF,Read,NAK
3.8233828000,1379,0xD4,0x1E,Write,ACK
3.8234474000,1380,0xD5,0x07,Read,NAK
3.8235140000,1382,0xD4,0x28,Write,ACK
3.8235788000,1383,0xD5,0xDB,Read,ACK
3.8236092000,1383,0xD5,0x00,Read,ACK
3.8236396000,1383,0xD5,0x5A,Read,ACK
3.8236700000,1383,0xD5,0xFF,Read,ACK
3.8237002000,1383,0xD5,0x81,Read,ACK
3.8238104000,1383,0xD5,0x40,Read,NAK
3.8238818000,1385,0xD4,0x20,Write,ACK
3.8239548000,1386,0xD5,0x66,Read,ACK
3.8239874000,1386,0xD5,0xFC,Read,ACK
3.8240216000,1386,0xD5,0x4E,Read,ACK
3.8240524000,1386,0xD5,0x00,Read,ACK
3.8240832000,1386,0xD5,0x63,Read,ACK
3.8241144000,1386,0xD5,0xFF,Read,ACK
3.8241450000,1386,0xD5,0xAB,Read,ACK
3.8241756000,1386,0xD5,0xFF,Read,NAK
3.8433914000,1388,0xD4,0x1E,Write,ACK
3.8434750000,1389,0xD5,0x07,Read,NAK
3.8435436000,1391,0xD4,0x28,Write,ACK
3.8436084000,1392,0xD5,0xDA,Read,ACK
3.8436390000,1392,0xD5,0x00,Read,ACK
3.8436694000,1392,0xD5,0x56,Read,ACK
3.8436998000,1392,0xD5,0xFF,Read,ACK
3.8437302000,1392,0xD5,0x7B,Read,ACK
3.8438070000,1392,0xD5,0x40,Read,NAK
3.8438734000,1394,0xD4,0x20,Write,ACK
3.8439382000,1395,0xD5,0x5E,Read,ACK
3.8439686000,1395,0xD5,0xFC,Read,ACK
3.8439990000,1395,0xD5,0x4B,Read,ACK
3.8440294000,1395,0xD5,0x00,Read,ACK
3.8440600000,1395,0xD5,0x62,Read,ACK
3.8440904000,1395,0xD5,0xFF,Read,ACK
3.8441206000,1395,0xD5,0xAF,Read,ACK
3.8441510000,1395,0xD5,0xFF,Read,NAK
3.8634090000,1397,0xD4,0x1E,Write,ACK
3.8634804000,1398,0xD5,0x07,Read,NAK
3.8635480000,1400,0xD4,0x28,Write,ACK
3.8636130000,1401,0xD5,0xDA,Read,ACK
3.8636432000,1401,0xD5,0x00,Read,ACK
3.8636738000,1401,0xD5,0x54,Read,ACK
3.8637040000,1401,0xD5,0xFF,Read,ACK
3.8637344000,1401,0xD5,0x86,Read,ACK
3.8638162000,1401,0xD5,0x40,Read,NAK
3.8638826000,1403,0xD4,0x20,Write,ACK
3.8639474000,1404,0xD5,0x5B,Read,ACK
3.8639778000,1404,0xD5,0xFC,Read,ACK
3.8640082000,1404,0xD5,0x59,Read,ACK
3.8640386000,1404,0xD5,0x00,Read,ACK
3.8640690000,1404,0xD5,0x60,Read,ACK
3.8640994000,1404,0xD5,0xFF,Read,ACK
3.8641298000,1404,0xD5,0xB1,Read,ACK
3.8641602000,1404,0xD5,0xFF,Read,NAK
3.8834068000,1406,0xD4,0x1E,Write,ACK
3.8834744000,1407,0xD5,0x07,Read,NAK
3.8835408000,1409,0xD4,0x28,Write,ACK
3.8836056000,1410,0xD5,0xDC,Read,ACK
3.8836360000,1410,0xD5,0x00,Read,ACK
3.8836664000,1410,0xD5,0x58,Read,ACK
3.8836968000,1410,0xD5,0xFF,Read,ACK
3.8837270000,1410,0xD5,0x84,Read,ACK
3.8838260000,1410,0xD5,0x40,Read,NAK
3.8838926000,1412,0xD4,0x20,Write,ACK
3.8839572000,1413,0xD5,0x69,Read,ACK
3.8839876000,1413,0xD5,0xFC,Read,ACK
3.8840180000,1413,0xD5,0x63,Read,ACK
3.8840484000,1413,0xD5,0x00,Read,ACK
3.8840788000,1413,0xD5,0x53,Read,ACK
3.8841092000,1413,0xD5,0xFF,Read,ACK
3.8841394000,1413,0xD5,0xAF,Read,ACK
3.8841698000,1413,0xD5,0xFF,Read,NAK
3.9034072000,1415,0xD4,0x1E,Write,ACK
3.9034720000,1416,0xD5,0x07,Read,NAK
3.9035382000,1418,0xD4,0x28,Write,ACK
3.9036032000,1419,0xD5,0xE0,Read,ACK
3.9036334000,1419,0xD5,0x00,Read,ACK
3.9036640000,1419,0xD5,0x5A,Read,ACK
3.9036942000,1419,0xD5,0xFF,Read,ACK
3.9037244000,1419,0xD5,0x7E,Read,ACK
3.9038228000,1419,0xD5,0x40,Read,NAK
3.9038892000,1421,0xD4,0x20,Write,ACK
3.9039540000,1422,0xD5,0x60,Read,ACK
3.9039844000,1422,0xD5,0xFC,Read,ACK
3.9040146000,1422,0xD5,0x61,Read,ACK
3.9040452000,1422,0xD5,0x00,Read,ACK
3.9040756000,1422,0xD5,0x57,Read,ACK
3.9041058000,1422,0xD5,0xFF,Read,ACK
3.9041360000,1422,0xD5,0xA9,Read,ACK
3.9041664000,1422,0xD5,0xFF,Read,NAK
3.9234128000,1424,0xD4,0x1E,Write,ACK
3.9234776000,1425,0xD5,0x07,Read,NAK
3.9235440000,1427,0xD4,0x28,Write,ACK
3.9236088000,1428,0xD5,0xE8,Read,ACK
3.9236392000,1428,0xD5,0x00,Read,ACK
3.9236696000,1428,0xD5,0x5B,Read,ACK
3.9237000000,1428,0xD5,0xFF,Read,ACK
3.9237304000,1428,0xD5,0x89,Read,ACK
3.9238308000,1428,0xD5,0x40,Read,NAK
3.9239006000,1430,0xD4,0x20,Write,ACK
3.9239768000,1431,0xD5,0x75,Read,ACK
3.9240120000,1431,0xD5,0xFC,Read,ACK
3.9240438000,1431,0xD5,0x66,Read,ACK
3.9240752000,1431,0xD5,0x00,Read,ACK
3.9241058000,1431,0xD5,0x68,Read,ACK
3.9241368000,1431,0xD5,0xFF,Read,ACK
3.9241682000,1431,0xD5,0xB0,Read,ACK
3.9241994000,1431,0xD5,0xFF,Read,NAK
3.9434172000,1433,0xD4,0x1E,Write,ACK
3.9434868000,1434,0xD5,0x07,Read,NAK
3.9435542000,1436,0xD4,0x28,Write,ACK
3.9436190000,1437,0xD5,0xEB,Read,ACK
3.9436494000,1437,0xD5,0x00,Read,ACK
3.9436798000,1437,0xD5,0x5E,Read,ACK
3.9437102000,1437,0xD5,0xFF,Read,ACK
3.9437404000,1437,0xD5,0x86,Read,ACK
3.9438650000,1437,0xD5,0x40,Read,NAK
3.9439314000,1439,0xD4,0x20,Write,ACK
3.9439962000,1440,0xD5,0x70,Read,ACK
3.9440266000,1440,0xD5,0xFC,Read,ACK
3.9440570000,1440,0xD5,0x66,Read,ACK
3.9440874000,1440,0xD5,0x00,Read,ACK
3.9441180000,1440,0xD5,0x63,Read,ACK
3.9441484000,1440,0xD5,0xFF,Read,ACK
3.9441788000,1440,0xD5,0xB2,Read,ACK
3.9442092000,1440,0xD5,0xFF,Read,NAK
3.9634336000,1442,0xD4,0x1E,Write,ACK
3.9635040000,1443,0xD5,0x07,Read,NAK
3.9635716000,1445,0xD4,0x28,Write,ACK
3.9636364000,1446,0xD5,0xE4,Read,ACK
3.9636668000,1446,0xD5,0x00,Read,ACK
3.9636972000,1446,0xD5,0x5F,Read,ACK
3.9637276000,1446,0xD5,0xFF,Read,ACK
3.9637578000,1446,0xD5,0x80,Read,ACK
3.9638394000,1446,0xD5,0x40,Read,NAK
3.9639058000,1448,0xD4,0x20,Write,ACK
3.9639706000,1449,0xD5,0x62,Read,ACK
3.9640010000,1449,0xD5,0xFC,Read,ACK
3.9640314000,1449,0xD5,0x58,Read,ACK
3.9640618000,1449,0xD5,0x00,Read,ACK
3.9640924000,1449,0xD5,0x6F,Read,ACK
3.9641228000,1449,0xD5,0xFF,Read,ACK
3.9641530000,1449,0xD5,0xB3,Read,ACK
3.9641834000,1449,0xD5,0xFF,Read,NAK
3.9834312000,1451,0xD4,0x1E,Write,ACK
3.9834988000,1452,0xD5,0x07,Read,NAK
3.9835652000,1454,0xD4,0x28,Write,ACK
3.9836300000,1455,0xD5,0xE0,Read,ACK
3.9836604000,1455,0xD5,0x00,Read,ACK
3.9836908000,1455,0xD5,0x5B,Read,ACK
3.9837210000,1455,0xD5,0xFF,Read,ACK
3.9837514000,1455,0xD5,0x86,Read,ACK
3.9838446000,1455,0xD5,0x40,Read,NAK
3.9839110000,1457,0xD4,0x20,Write,ACK
3.9839758000,1458,0xD5,0x66,Read,ACK
3.9840062000,1458,0xD5,0xFC,Read,ACK
3.9840364000,1458,0xD5,0x63,Read,ACK
3.9840668000,1458,0xD5,0x00,Read,ACK
3.9840972000,1458,0xD5,0x5B,Read,ACK
3.9841276000,1458,0xD5,0xFF,Read,ACK
3.9841578000,1458,0xD5,0xB3,Read,ACK
3.9841882000,1458,0xD5,0xFF,Read,NAK
4.0034336000,1460,0xD4,0x1E,Write,ACK
4.0034982000,1461,0xD5,0x07,Read,NAK
4.0035646000,1463,0xD4,0x28,Write,ACK
4.0036294000,1464,0xD5,0xE0,Read,ACK
4.0036598000,1464,0xD5,0x00,Read,ACK
4.0036902000,1464,0xD5,0x59,Read,ACK
4.0037206000,1464,0xD5,0xFF,Read,ACK
4.0037508000,1464,0xD5,0x7E,Read,ACK
4.0038502000,1464,0xD5,0x40,Read,NAK
4.0039166000,1466,0xD4,0x20,Write,ACK
4.0039814000,1467,0xD5,0x75,Read,ACK
4.0040116000,1467,0xD5,0xFC,Read,ACK
4.0040420000,1467,0xD5,0x5F,Read,ACK
4.0040724000,1467,0xD5,0x00,Read,ACK
4.0041028000,1467,0xD5,0x63,Read,ACK
4.0041332000,1467,0xD5,0xFF,Read,ACK
4.0041634000,1467,0xD5,0xAE,Read,ACK
4.0041938000,1467,0xD5,0xFF,Read,NAK
4.0234438000,1469,0xD4,0x1E,Write,ACK
4.0235114000,1470,0xD5,0x07,Read,NAK
4.0235780000,1472,0xD4,0x28,Write,ACK
4.0236428000,1473,0xD5,0xDE,Read,ACK
4.0236732000,1473,0xD5,0x00,Read,ACK
4.0237036000,1473,0xD5,0x5A,Read,ACK
4.0237340000,1473,0xD5,0xFF,Read,ACK
4.0237644000,1473,0xD5,0x74,Read,ACK
4.0238624000,1473,0xD5,0x40,Read,NAK
4.0239322000,1475,0xD4,0x20,Write,ACK
4.0240076000,1476,0xD5,0x68,Read,ACK
4.0240422000,1476,0xD5,0xFC,Read,ACK
4.0240728000,1476,0xD5,0x60,Read,ACK
4.0241042000,1476,0xD5,0x00,Read,ACK
4.0241348000,1476,0xD5,0x65,Read,ACK
4.0241658000,1476,0xD5,0xFF,Read,ACK
4.0241970000,1476,0xD5,0xB0,Read,ACK
4.0242276000,1476,0xD5,0xFF,Read,NAK
4.0434426000,1478,0xD4,0x1E,Write,ACK
4.0435094000,1479,0xD5,0x07,Read,NAK
4.0435758000,1481,0xD4,0x28,Write,ACK
4.0436418000,1482,0xD5,0xE0,Read,ACK
4.0436722000,1482,0xD5,0x00,Read,ACK
4.0437026000,1482,0xD5,0x5A,Read,ACK
4.0437330000,1482,0xD5,0xFF,Read,ACK
4.0437634000,1482,0xD5,0x84,Read,ACK
4.0438606000,1482,0xD5,0x40,Read,NAK
4.0439270000,1484,0xD4,0x20,Write,ACK
4.0439918000,1485,0xD5,0x72,Read,ACK
4.0440222000,1485,0xD5,0xFC,Read,ACK
4.0440526000,1485,0xD5,0x75,Read,ACK
4.0440830000,1485,0xD5,0x00,Read,ACK
4.0441134000,1485,0xD5,0x50,Read,ACK
4.0441438000,1485,0xD5,0xFF,Read,ACK
4.0441742000,1485,0xD5,0xAA,Read,ACK
4.0442044000,1485,0xD5,0xFF,Read,NAK
4.0634610000,1487,0xD4,0x1E,Write,ACK
4.0635314000,1488,0xD5,0x07,Read,NAK
4.0635990000,1490,0xD4,0x28,Write,ACK
4.0636638000,1491,0xD5,0xE2,Read,ACK
4.0636942000,1491,0xD5,0x00,Read,ACK
4.0637246000,1491,0xD5,0x5C,Read,ACK
4.0637550000,1491,0xD5,0xFF,Read,ACK
4.0637852000,1491,0xD5,0x7F,Read,ACK
4.0638672000,1491,0xD5,0x40,Read,NAK
4.0639336000,1493,0xD4,0x20,Write,ACK
4.0639984000,1494,0xD5,0x62,Read,ACK
4.0640288000,1494,0xD5,0xFC,Read,ACK
4.0640592000,1494,0xD5,0x59,Read,ACK
4.0640896000,1494,0xD5,0x00,Read,ACK
4.0641202000,1494,0xD5,0x6A,Read,ACK
4.0641506000,1494,0xD5,0xFF,Read,ACK
4.0641808000,1494,0xD5,0xAB,Read,ACK
4.0642112000,1494,0xD5,0xFF,Read,NAK
4.0834546000,1496,0xD4,0x1E,Write,ACK
4.0835194000,1497,0xD5,0x07,Read,NAK
4.0835858000,1499,0xD4,0x28,Write,ACK
4.0836508000,1500,0xD5,0xE3,Read,ACK
4.0836812000,1500,0xD5,0x00,Read,ACK
4.0837118000,1500,0xD5,0x61,Read,ACK
4.0837422000,1500,0xD5,0xFF,Read,ACK
4.0837724000,1500,0xD5,0x7E,Read,ACK
4.0838540000,1500,0xD5,0x40,Read,NAK
4.0839206000,1502,0xD4,0x20,Write,ACK
4.0839854000,1503,0xD5,0x60,Read,ACK
4.0840160000,1503,0xD5,0xFC,Read,ACK
4.0840462000,1503,0xD5,0x5D,Read,ACK
4.0840766000,1503,0xD5,0x00,Read,ACK
4.0841072000,1503,0xD5,0x5C,Read,ACK
4.0841376000,1503,0xD5,0xFF,Read,ACK
4.0841680000,1503,0xD5,0xB2,Read,ACK
4.0841982000,1503,0xD5,0xFF,Read,NAK
4.1034600000,1505,0xD4,0x1E,Write,ACK
4.1035248000,1506,0xD5,0x07,Read,NAK
4.1035912000,1508,0xD4,0x28,Write,ACK
4.1036560000,1509,0xD5,0xE5,Read,ACK
4.1036864000,1509,0xD5,0x00,Read,ACK
4.1037168000,1509,0xD5,0x64,Read,ACK
4.1037472000,1509,0xD5,0xFF,Read,ACK
4.1037776000,1509,0xD5,0x7B,Read,ACK
4.1038588000,1509,0xD5,0x40,Read,NAK
4.1039254000,1511,0xD4,0x20,Write,ACK
4.1039904000,1512,0xD5,0x79,Read,ACK
4.1040208000,1512,0xD5,0xFC,Read,ACK
4.1040510000,1512,0xD5,0x5A,Read,ACK
4.1040814000,1512,0xD5,0x00,Read,ACK
4.1041120000,1512,0xD5,0x61,Read,ACK
4.1041424000,1512,0xD5,0xFF,Read,ACK
4.1041726000,1512,0xD5,0xB0,Read,ACK
4.1042030000,1512,0xD5,0xFF,Read,NAK
4.1234684000,1514,0xD4,0x1E,Write,ACK
4.1235360000,1515,0xD5,0x07,Read,NAK
4.1236026000,1517,0xD4,0x28,Write,ACK
4.1236676000,1518,0xD5,0xE4,Read,ACK
4.1236978000,1518,0xD5,0x00,Read,ACK
4.1237284000,1518,0xD5,0x62,Read,ACK
4.1237588000,1518,0xD5,0xFF,Read,ACK
4.1237890000,1518,0xD5,0x82,Read,ACK
4.1238670000,1518,0xD5,0x40,Read,NAK
4.1239366000,1520,0xD4,0x20,Write,ACK
4.1240110000,1521,0xD5,0x6C,Read,ACK
4.1240436000,1521,0xD5,0xFC,Read,ACK
4.1240740000,1521,0xD5,0x65,Read,ACK
4.1241048000,1521,0xD5,0x00,Read,ACK
4.1241354000,1521,0xD5,0x62,Read,ACK
4.1241662000,1521,0xD5,0xFF,Read,ACK
4.1241968000,1521,0xD5,0xAE,Read,ACK
4.1242274000,1521,0xD5,0xFF,Read,NAK
4.1434698000,1523,0xD4,0x1E,Write,ACK
4.1435362000,1524,0xD5,0x07,Read,NAK
4.1436028000,1526,0xD4,0x28,Write,ACK
4.1436688000,1527,0xD5,0xE3,Read,ACK
4.1436992000,1527,0xD5,0x00,Read,ACK
4.1437296000,1527,0xD5,0x60,Read,ACK
4.1437600000,1527,0xD5,0xFF,Read,ACK
4.1437904000,1527,0xD5,0x84,Read,ACK
4.1438696000,1527,0xD5,0x40,Read,NAK
4.1439362000,1529,0xD4,0x20,Write,ACK
4.1440010000,1530,0xD5,0x64,Read,ACK
4.1440314000,1530,0xD5,0xFC,Read,ACK
4.1440616000,1530,0xD5,0x5F,Read,ACK
4.1440920000,1530,0xD5,0x00,Read,ACK
4.1441226000,1530,0xD5,0x5B,Read,ACK
4.1441528000,1530,0xD5,0xFF,Read,ACK
4.1441832000,1530,0xD5,0xAF,Read,ACK
4.1442136000,1530,0xD5,0xFF,Read,NAK
4.1634854000,1532,0xD4,0x1E,Write,ACK
4.1635560000,1533,0xD5,0x07,Read,NAK
4.1636236000,1535,0xD4,0x28,Write,ACK
4.1636884000,1536,0xD5,0xEA,Read,ACK
4.1637188000,1536,0xD5,0x00,Read,ACK
4.1637492000,1536,0xD5,0x60,Read,ACK
4.1637796000,1536,0xD5,0xFF,Read,ACK
4.1638100000,1536,0xD5,0x80,Read,ACK
4.1638752000,1536,0xD5,0x40,Read,NAK
4.1639418000,1538,0xD4,0x20,Write,ACK
4.1640066000,1539,0xD5,0x64,Read,ACK
4.1640370000,1539,0xD5,0xFC,Read,ACK
4.1640674000,1539,0xD5,0x61,Read,ACK
4.1640978000,1539,0xD5,0x00,Read,ACK
4.1641282000,1539,0xD5,0x51,Read,ACK
4.1641586000,1539,0xD5,0xFF,Read,ACK
4.1641890000,1539,0xD5,0xA9,Read,ACK
4.1642194000,1539,0xD5,0xFF,Read,NAK
4.1834810000,1541,0xD4,0x1E,Write,ACK
4.1835458000,1542,0xD5,0x07,Read,NAK
4.1836126000,1544,0xD4,0x28,Write,ACK
4.1836774000,1545,0xD5,0xF4,Read,ACK
4.1837078000,1545,0xD5,0x00,Read,ACK
4.1837382000,1545,0xD5,0x5E,Read,ACK
4.1837686000,1545,0xD5,0xFF,Read,ACK
4.1837988000,1545,0xD5,0x7E,Read,ACK
4.1838846000,1545,0xD5,0x40,Read,NAK
4.1839512000,1547,0xD4,0x20,Write,ACK
4.1840160000,1548,0xD5,0x68,Read,ACK
4.1840462000,1548,0xD5,0xFC,Read,ACK
4.1840766000,1548,0xD5,0x5C,Read,ACK
4.1841070000,1548,0xD5,0x00,Read,ACK
4.1841374000,1548,0xD5,0x5B,Read,ACK
4.1841678000,1548,0xD5,0xFF,Read,ACK
4.1841982000,1548,0xD5,0xA4,Read,ACK
4.1842286000,1548,0xD5,0xFF,Read,NAK
4.2034912000,1550,0xD4,0x1E,Write,ACK
4.2035586000,1551,0xD5,0x07,Read,NAK
4.2036250000,1553,0xD4,0x28,Write,ACK
4.2036896000,1554,0xD5,0xEE,Read,ACK
4.2037200000,1554,0xD5,0x00,Read,ACK
4.2037504000,1554,0xD5,0x58,Read,ACK
4.2037808000,1554,0xD5,0xFF,Read,ACK
4.2038110000,1554,0xD5,0x83,Read,ACK
4.2038898000,1554,0xD5,0x40,Read,NAK
4.2039562000,1556,0xD4,0x20,Write,ACK
4.2040210000,1557,0xD5,0x66,Read,ACK
4.2040514000,1557,0xD5,0xFC,Read,ACK
4.2040818000,1557,0xD5,0x4E,Read,ACK
4.2041122000,1557,0xD5,0x00,Read,ACK
4.2041426000,1557,0xD5,0x82,Read,ACK
4.2041730000,1557,0xD5,0xFF,Read,ACK
4.2042034000,1557,0xD5,0x9F,Read,ACK
4.2042336000,1557,0xD5,0xFF,Read,NAK
4.2234918000,1559,0xD4,0x1E,Write,ACK
4.2235566000,1560,0xD5,0x07,Read,NAK
4.2236230000,1562,0xD4,0x28,Write,ACK
4.2236880000,1563,0xD5,0xE2,Read,ACK
4.2237184000,1563,0xD5,0x00,Read,ACK
4.2237488000,1563,0xD5,0x56,Read,ACK
4.2237792000,1563,0xD5,0xFF,Read,ACK
4.2238096000,1563,0xD5,0x84,Read,ACK
4.2238936000,1563,0xD5,0x40,Read,NAK
4.2239632000,1565,0xD4,0x20,Write,ACK
4.2240384000,1566,0xD5,0x5C,Read,ACK
4.2240708000,1566,0xD5,0xFC,Read,ACK
4.2241014000,1566,0xD5,0x6A,Read,ACK
4.2241322000,1566,0xD5,0x00,Read,ACK
4.2241632000,1566,0xD5,0x60,Read,ACK
4.2241938000,1566,0xD5,0xFF,Read,ACK
4.2242242000,1566,0xD5,0xA7,Read,ACK
4.2242554000,1566,0xD5,0xFF,Read,NAK
4.2434962000,1568,0xD4,0x1E,Write,ACK
4.2435670000,1569,0xD5,0x07,Read,NAK
4.2436344000,1571,0xD4,0x28,Write,ACK
4.2436994000,1572,0xD5,0xD8,Read,ACK
4.2437298000,1572,0xD5,0x00,Read,ACK
4.2437602000,1572,0xD5,0x62,Read,ACK
4.2437906000,1572,0xD5,0xFF,Read,ACK
4.2438208000,1572,0xD5,0x7E,Read,ACK
4.2439050000,1572,0xD5,0x40,Read,NAK
4.2439716000,1574,0xD4,0x20,Write,ACK
4.2440364000,1575,0xD5,0x70,Read,ACK
4.2440668000,1575,0xD5,0xFC,Read,ACK
4.2440972000,1575,0xD5,0x61,Read,ACK
4.2441276000,1575,0xD5,0x00,Read,ACK
4.2441580000,1575,0xD5,0x55,Read,ACK
4.2441884000,1575,0xD5,0xFF,Read,ACK
4.2442188000,1575,0xD5,0xA7,Read,ACK
4.2442490000,1575,0xD5,0xFF,Read,NAK
4.2635128000,1577,0xD4,0x1E,Write,ACK
4.2635830000,1578,0xD5,0x07,Read,NAK
4.2636506000,1580,0xD4,0x28,Write,ACK
4.2637156000,1581,0xD5,0xD5,Read,ACK
4.2637460000,1581,0xD5,0x00,Read,ACK
4.2637764000,1581,0xD5,0x68,Read,ACK
4.2638068000,1581,0xD5,0xFF,Read,ACK
4.2638370000,1581,0xD5,0x83,Read,ACK
4.2639018000,1581,0xD5,0x40,Read,NAK
4.2639682000,1583,0xD4,0x20,Write,ACK
4.2640330000,1584,0xD5,0x70,Read,ACK
4.2640636000,1584,0xD5,0xFC,Read,ACK
4.2640938000,1584,0xD5,0x54,Read,ACK
4.2641242000,1584,0xD5,0x00,Read,ACK
4.2641548000,1584,0xD5,0x62,Read,ACK
4.2641852000,1584,0xD5,0xFF,Read,ACK
4.2642154000,1584,0xD5,0xA0,Read,ACK
4.2642458000,1584,0xD5,0xFF,Read,NAK
4.2835074000,1586,0xD4,0x1E,Write,ACK
4.2835724000,1587,0xD5,0x07,Read,NAK
4.2836388000,1589,0xD4,0x28,Write,ACK
4.2837038000,1590,0xD5,0xD3,Read,ACK
4.2837342000,1590,0xD5,0x00,Read,ACK
4.2837646000,1590,0xD5,0x5C,Read,ACK
4.2837950000,1590,0xD5,0xFF,Read,ACK
4.2838252000,1590,0xD5,0x84,Read,ACK
4.2839072000,1590,0xD5,0x40,Read,NAK
4.2839738000,1592,0xD4,0x20,Write,ACK
4.2840386000,1593,0xD5,0x6C,Read,ACK
4.2840690000,1593,0xD5,0xFC,Read,ACK
4.2840994000,1593,0xD5,0x51,Read,ACK
4.2841298000,1593,0xD5,0x00,Read,ACK
4.2841602000,1593,0xD5,0x68,Read,ACK
4.2841908000,1593,0xD5,0xFF,Read,ACK
4.2842212000,1593,0xD5,0x9B,Read,ACK
4.2842514000,1593,0xD5,0xFF,Read,NAK
4.3035156000,1595,0xD4,0x1E,Write,ACK
4.3035832000,1596,0xD5,0x07,Read,NAK
4.3036496000,1598,0xD4,0x28,Write,ACK
4.3037144000,1599,0xD5,0xD0,Read,ACK
4.3037448000,1599,0xD5,0x00,Read,ACK
4.3037752000,1599,0xD5,0x4E,Read,ACK
4.3038054000,1599,0xD5,0xFF,Read,ACK
4.3038356000,1599,0xD5,0x7A,Read,ACK
4.3039126000,1599,0xD5,0x40,Read,NAK
4.3039790000,1601,0xD4,0x20,Write,ACK
4.3040438000,1602,0xD5,0x6A,Read,ACK
4.3040742000,1602,0xD5,0xFC,Read,ACK
4.3041044000,1602,0xD5,0x52,Read,ACK
4.3041348000,1602,0xD5,0x00,Read,ACK
4.3041652000,1602,0xD5,0x6A,Read,ACK
4.3041956000,1602,0xD5,0xFF,Read,ACK
4.3042258000,1602,0xD5,0xA7,Read,ACK
4.3042560000,1602,0xD5,0xFF,Read,NAK
4.3235182000,1604,0xD4,0x1E,Write,ACK
4.3235830000,1605,0xD5,0x07,Read,NAK
4.3236494000,1607,0xD4,0x28,Write,ACK
4.3237142000,1608,0xD5,0xD9,Read,ACK
4.3237446000,1608,0xD5,0x00,Read,ACK
4.3237750000,1608,0xD5,0x4C,Read,ACK
4.3238056000,1608,0xD5,0xFF,Read,ACK
4.3238360000,1608,0xD5,0x86,Read,ACK
4.3239204000,1608,0xD5,0x40,Read,NAK
4.3239900000,1610,0xD4,0x20,Write,ACK
4.3240650000,1611,0xD5,0x7C,Read,ACK
4.3240974000,1611,0xD5,0xFC,Read,ACK
4.3241280000,1611,0xD5,0x61,Read,ACK
4.3241586000,1611,0xD5,0x00,Read,ACK
4.3241894000,1611,0xD5,0x5C,Read,ACK
4.3242200000,1611,0xD5,0xFF,Read,ACK
4.3242504000,1611,0xD5,0xAD,Read,ACK
4.3242816000,1611,0xD5,0xFF,Read,NAK
4.3435234000,1613,0xD4,0x1E,Write,ACK
4.3435920000,1614,0xD5,0x07,Read,NAK
4.3436596000,1616,0xD4,0x28,Write,ACK
4.3437244000,1617,0xD5,0xDB,Read,ACK
4.3437548000,1617,0xD5,0x00,Read,ACK
4.3437852000,1617,0xD5,0x4E,Read,ACK
4.3438156000,1617,0xD5,0xFF,Read,ACK
4.3438458000,1617,0xD5,0x8A,Read,ACK
4.3439248000,1617,0xD5,0x40,Read,NAK
4.3439914000,1619,0xD4,0x20,Write,ACK
4.3440562000,1620,0xD5,0x6F,Read,ACK
4.3440866000,1620,0xD5,0xFC,Read,ACK
4.3441170000,1620,0xD5,0x57,Read,ACK
4.3441474000,1620,0xD5,0x00,Read,ACK
4.3441778000,1620,0xD5,0x5D,Read,ACK
4.3442082000,1620,0xD5,0xFF,Read,ACK
4.3442386000,1620,0xD5,0xB1,Read,ACK
4.3442690000,1620,0xD5,0xFF,Read,NAK
4.3635392000,1622,0xD4,0x1E,Write,ACK
4.3636096000,1623,0xD5,0x07,Read,NAK
4.3636770000,1625,0xD4,0x28,Write,ACK
4.3637418000,1626,0xD5,0xDE,Read,ACK
4.3637722000,1626,0xD5,0x00,Read,ACK
4.3638026000,1626,0xD5,0x52,Read,ACK
4.3638332000,1626,0xD5,0xFF,Read,ACK
4.3638634000,1626,0xD5,0x84,Read,ACK
4.3639332000,1626,0xD5,0x40,Read,NAK
4.3639996000,1628,0xD4,0x20,Write,ACK
4.3640646000,1629,0xD5,0x6A,Read,ACK
4.3640950000,1629,0xD5,0xFC,Read,ACK
4.3641254000,1629,0xD5,0x4F,Read,ACK
4.3641558000,1629,0xD5,0x00,Read,ACK
4.3641862000,1629,0xD5,0x54,Read,ACK
4.3642168000,1629,0xD5,0xFF,Read,ACK
4.3642470000,1629,0xD5,0xB2,Read,ACK
4.3642774000,1629,0xD5,0xFF,Read,NAK
4.3835386000,1631,0xD4,0x1E,Write,ACK
4.3836060000,1632,0xD5,0x07,Read,NAK
4.3836724000,1634,0xD4,0x28,Write,ACK
4.3837372000,1635,0xD5,0xE2,Read,ACK
4.3837676000,1635,0xD5,0x00,Read,ACK
4.3837980000,1635,0xD5,0x53,Read,ACK
4.3838284000,1635,0xD5,0xFF,Read,ACK
4.3838586000,1635,0xD5,0x7E,Read,ACK
4.3839338000,1635,0xD5,0x40,Read,NAK
4.3840002000,1637,0xD4,0x20,Write,ACK
4.3840650000,1638,0xD5,0x7B,Read,ACK
4.3840952000,1638,0xD5,0xFC,Read,ACK
4.3841256000,1638,0xD5,0x53,Read,ACK
4.3841560000,1638,0xD5,0x00,Read,ACK
4.3841864000,1638,0xD5,0x5E,Read,ACK
4.3842166000,1638,0xD5,0xFF,Read,ACK
4.3842470000,1638,0xD5,0xAB,Read,ACK
4.3842772000,1638,0xD5,0xFF,Read,NAK
4.4035390000,1640,0xD4,0x1E,Write,ACK
4.4036038000,1641,0xD5,0x07,Read,NAK
4.4036702000,1643,0xD4,0x28,Write,ACK
4.4037350000,1644,0xD5,0xE3,Read,ACK
4.4037654000,1644,0xD5,0x00,Read,ACK
4.4037958000,1644,0xD5,0x4E,Read,ACK
4.4038262000,1644,0xD5,0xFF,Read,ACK
4.4038564000,1644,0xD5,0x7B,Read,ACK
4.4039428000,1644,0xD5,0x40,Read,NAK
4.4040094000,1646,0xD4,0x20,Write,ACK
4.4040740000,1647,0xD5,0x77,Read,ACK
4.4041044000,1647,0xD5,0xFC,Read,ACK
4.4041348000,1647,0xD5,0x5B,Read,ACK
4.4041650000,1647,0xD5,0x00,Read,ACK
4.4041954000,1647,0xD5,0x63,Read,ACK
4.4042258000,1647,0xD5,0xFF,Read,ACK
4.4042562000,1647,0xD5,0xAA,Read,ACK
4.4042864000,1647,0xD5,0xFF,Read,NAK
4.4235492000,1649,0xD4,0x1E,Write,ACK
4.4236170000,1650,0xD5,0x07,Read,NAK
4.4236834000,1652,0xD4,0x28,Write,ACK
4.4237482000,1653,0xD5,0xE8,Read,ACK
4.4237786000,1653,0xD5,0x00,Read,ACK
4.4238092000,1653,0xD5,0x4D,Read,ACK
4.4238396000,1653,0xD5,0xFF,Read,ACK
4.4238698000,1653,0xD5,0x80,Read,ACK
4.4239470000,1653,0xD5,0x40,Read,NAK
4.4240168000,1655,0xD4,0x20,Write,ACK
4.4240904000,1656,0xD5,0x72,Read,ACK
4.4241228000,1656,0xD5,0xFC,Read,ACK
4.4241536000,1656,0xD5,0x64,Read,ACK
4.4241842000,1656,0xD5,0x00,Read,ACK
4.4242148000,1656,0xD5,0x56,Read,ACK
4.4242456000,1656,0xD5,0xFF,Read,ACK
4.4242762000,1656,0xD5,0xB1,Read,ACK
4.4243074000,1656,0xD5,0xFF,Read,NAK
4.4435488000,1658,0xD4,0x1E,Write,ACK
4.4436154000,1659,0xD5,0x07,Read,NAK
4.4436818000,1661,0xD4,0x28,Write,ACK
4.4437478000,1662,0xD5,0xEA,Read,ACK
4.4437780000,1662,0xD5,0x00,Read,ACK
4.4438086000,1662,0xD5,0x55,Read,ACK
4.4438390000,1662,0xD5,0xFF,Read,ACK
4.4438692000,1662,0xD5,0x8E,Read,ACK
4.4439500000,1662,0xD5,0x40,Read,NAK
4.4440166000,1664,0xD4,0x20,Write,ACK
4.4440814000,1665,0xD5,0x7C,Read,ACK
4.4441118000,1665,0xD5,0xFC,Read,ACK
4.4441420000,1665,0xD5,0x5C,Read,ACK
4.4441724000,1665,0xD5,0x00,Read,ACK
4.4442028000,1665,0xD5,0x63,Read,ACK
4.4442332000,1665,0xD5,0xFF,Read,ACK
4.4442636000,1665,0xD5,0xB2,Read,ACK
4.4442940000,1665,0xD5,0xFF,Read,NAK
4.4635654000,1667,0xD4,0x1E,Write,ACK
4.4636360000,1668,0xD5,0x07,Read,NAK
4.4637034000,1670,0xD4,0x28,Write,ACK
4.4637682000,1671,0xD5,0xDE,Read,ACK
4.4637986000,1671,0xD5,0x00,Read,ACK
4.4638292000,1671,0xD5,0x57,Read,ACK
4.4638594000,1671,0xD5,0xFF,Read,ACK
4.4638898000,1671,0xD5,0x8B,Read,ACK
4.4639556000,1671,0xD5,0x40,Read,NAK
4.4640222000,1673,0xD4,0x20,Write,ACK
4.4640870000,1674,0xD5,0x76,Read,ACK
4.4641172000,1674,0xD5,0xFC,Read,ACK
4.4641476000,1674,0xD5,0x4D,Read,ACK
4.4641780000,1674,0xD5,0x00,Read,ACK
4.4642084000,1674,0xD5,0x78,Read,ACK
4.4642390000,1674,0xD5,0xFF,Read,ACK
4.4642692000,1674,0xD5,0xAF,Read,ACK
4.4642996000,1674,0xD5,0xFF,Read,NAK
4.4835630000,1676,0xD4,0x1E,Write,ACK
4.4836306000,1677,0xD5,0x07,Read,NAK
4.4836970000,1679,0xD4,0x28,Write,ACK
4.4837618000,1680,0xD5,0xD8,Read,ACK
4.4837922000,1680,0xD5,0x00,Read,ACK
4.4838226000,1680,0xD5,0x55,Read,ACK
4.4838530000,1680,0xD5,0xFF,Read,ACK
4.4838832000,1680,0xD5,0x7C,Read,ACK
4.4839648000,1680,0xD5,0x40,Read,NAK
4.4840314000,1682,0xD4,0x20,Write,ACK
4.4840962000,1683,0xD5,0x6A,Read,ACK
4.4841266000,1683,0xD5,0xFC,Read,ACK
4.4841568000,1683,0xD5,0x57,Read,ACK
4.4841872000,1683,0xD5,0x00,Read,ACK
4.4842176000,1683,0xD5,0x5A,Read,ACK
4.4842480000,1683,0xD5,0xFF,Read,ACK
4.4842784000,1683,0xD5,0xB1,Read,ACK
4.4843086000,1683,0xD5,0xFF,Read,NAK
4.5035654000,1685,0xD4,0x1E,Write,ACK
4.5036302000,1686,0xD5,0x07,Read,NAK
4.5036966000,1688,0xD4,0x28,Write,ACK
4.5037614000,1689,0xD5,0xDC,Read,ACK
4.5037918000,1689,0xD5,0x00,Read,ACK
4.5038222000,1689,0xD5,0x55,Read,ACK
4.5038526000,1689,0xD5,0xFF,Read,ACK
4.5038828000,1689,0xD5,0x82,Read,ACK
4.5039652000,1689,0xD5,0x40,Read,NAK
4.5040318000,1691,0xD4,0x20,Write,ACK
4.5040966000,1692,0xD5,0x75,Read,ACK
4.5041268000,1692,0xD5,0xFC,Read,ACK
4.5041570000,1692,0xD5,0x5B,Read,ACK
4.5041874000,1692,0xD5,0x00,Read,ACK
4.5042178000,1692,0xD5,0x69,Read,ACK
4.5042482000,1692,0xD5,0xFF,Read,ACK
4.5042784000,1692,0xD5,0xB7,Read,ACK
4.5043088000,1692,0xD5,0xFF,Read,NAK
4.5235738000,1694,0xD4,0x1E,Write,ACK
4.5236414000,1695,0xD5,0x07,Read,NAK
4.5237078000,1697,0xD4,0x28,Write,ACK
4.5237728000,1698,0xD5,0xE4,Read,ACK
4.5238030000,1698,0xD5,0x00,Read,ACK
4.5238336000,1698,0xD5,0x58,Read,ACK
4.5238640000,1698,0xD5,0xFF,Read,ACK
4.5238942000,1698,0xD5,0x90,Read,ACK
4.5239736000,1698,0xD5,0x40,Read,NAK
4.5240434000,1700,0xD4,0x20,Write,ACK
4.5241184000,1701,0xD5,0x75,Read,ACK
4.5241508000,1701,0xD5,0xFC,Read,ACK
4.5241814000,1701,0xD5,0x6A,Read,ACK
4.5242122000,1701,0xD5,0x00,Read,ACK
4.5242428000,1701,0xD5,0x59,Read,ACK
4.5242742000,1701,0xD5,0xFF,Read,ACK
4.5243046000,1701,0xD5,0xB7,Read,ACK
4.5243352000,1701,0xD5,0xFF,Read,NAK
4.5435752000,1703,0xD4,0x1E,Write,ACK
4.5436418000,1704,0xD5,0x07,Read,NAK
4.5437082000,1706,0xD4,0x28,Write,ACK
4.5437742000,1707,0xD5,0xE7,Read,ACK
4.5438044000,1707,0xD5,0x00,Read,ACK
4.5438350000,1707,0xD5,0x5D,Read,ACK
4.5438654000,1707,0xD5,0xFF,Read,ACK
4.5438956000,1707,0xD5,0x8A,Read,ACK
4.5439766000,1707,0xD5,0x40,Read,NAK
4.5440430000,1709,0xD4,0x20,Write,ACK
4.5441080000,1710,0xD5,0x6C,Read,ACK
4.5441384000,1710,0xD5,0xFC,Read,ACK
4.5441688000,1710,0xD5,0x5F,Read,ACK
4.5441992000,1710,0xD5,0x00,Read,ACK
4.5442296000,1710,0xD5,0x61,Read,ACK
4.5442600000,1710,0xD5,0xFF,Read,ACK
4.5442904000,1710,0xD5,0xB4,Read,ACK
4.5443208000,1710,0xD5,0xFF,Read,NAK
4.5635928000,1712,0xD4,0x1E,Write,ACK
4.5636634000,1713,0xD5,0x07,Read,NAK
4.5637308000,1715,0xD4,0x28,Write,ACK
4.5637956000,1716,0xD5,0xE3,Read,ACK
4.5638258000,1716,0xD5,0x00,Read,ACK
4.5638564000,1716,0xD5,0x62,Read,ACK
4.5638866000,1716,0xD5,0xFF,Read,ACK
4.5639170000,1716,0xD5,0x7F,Read,ACK
4.5639818000,1716,0xD5,0x40,Read,NAK
4.5640482000,1718,0xD4,0x20,Write,ACK
4.5641130000,1719,0xD5,0x68,Read,ACK
4.5641436000,1719,0xD5,0xFC,Read,ACK
4.5641738000,1719,0xD5,0x55,Read,ACK
4.5642042000,1719,0xD5,0x00,Read,ACK
4.5642348000,1719,0xD5,0x5E,Read,ACK
4.5642652000,1719,0xD5,0xFF,Read,ACK
4.5642954000,1719,0xD5,0xAF,Read,ACK
4.5643258000,1719,0xD5,0xFF,Read,NAK
4.5835866000,1721,0xD4,0x1E,Write,ACK
4.5836514000,1722,0xD5,0x07,Read,NAK
4.5837178000,1724,0xD4,0x28,Write,ACK
4.5837828000,1725,0xD5,0xDE,Read,ACK
4.5838130000,1725,0xD5,0x00,Read,ACK
4.5838434000,1725,0xD5,0x60,Read,ACK
4.5838738000,1725,0xD5,0xFF,Read,ACK
4.5839040000,1725,0xD5,0x84,Read,ACK
4.5839868000,1725,0xD5,0x40,Read,NAK
4.5840532000,1727,0xD4,0x20,Write,ACK
4.5841180000,1728,0xD5,0x7C,Read,ACK
4.5841484000,1728,0xD5,0xFC,Read,ACK
4.5841786000,1728,0xD5,0x67,Read,ACK
4.5842090000,1728,0xD5,0x00,Read,ACK
4.5842396000,1728,0xD5,0x51,Read,ACK
4.5842700000,1728,0xD5,0xFF,Read,ACK
4.5843002000,1728,0xD5,0xB3,Read,ACK
4.5843306000,1728,0xD5,0xFF,Read,NAK
4.6035966000,1730,0xD4,0x1E,Write,ACK
4.6036642000,1731,0xD5,0x07,Read,NAK
4.6037306000,1733,0xD4,0x28,Write,ACK
4.6037954000,1734,0xD5,0xE4,Read,ACK
4.6038260000,1734,0xD5,0x00,Read,ACK
4.6038564000,1734,0xD5,0x5C,Read,ACK
4.6038866000,1734,0xD5,0xFF,Read,ACK
4.6039170000,1734,0xD5,0x88,Read,ACK
4.6039924000,1734,0xD5,0x40,Read,NAK
4.6040588000,1736,0xD4,0x20,Write,ACK
4.6041236000,1737,0xD5,0x73,Read,ACK
4.6041540000,1737,0xD5,0xFC,Read,ACK
4.6041842000,1737,0xD5,0x55,Read,ACK
4.6042146000,1737,0xD5,0x00,Read,ACK
4.6042450000,1737,0xD5,0x61,Read,ACK
4.6042754000,1737,0xD5,0xFF,Read,ACK
4.6043056000,1737,0xD5,0xB5,Read,ACK
4.6043360000,1737,0xD5,0xFF,Read,NAK
4.6235972000,1739,0xD4,0x1E,Write,ACK
4.6236620000,1740,0xD5,0x07,Read,NAK
4.6237284000,1742,0xD4,0x28,Write,ACK
4.6237932000,1743,0xD5,0xE3,Read,ACK
4.6238236000,1743,0xD5,0x00,Read,ACK
4.6238542000,1743,0xD5,0x5E,Read,ACK
4.6238846000,1743,0xD5,0xFF,Read,ACK
4.6239148000,1743,0xD5,0x88,Read,ACK
4.6240000000,1743,0xD5,0x40,Read,NAK
4.6240696000,1745,0xD4,0x20,Write,ACK
4.6241438000,1746,0xD5,0x6C,Read,ACK
4.6241762000,1746,0xD5,0xFC,Read,ACK
4.6242066000,1746,0xD5,0x4C,Read,ACK
4.6242374000,1746,0xD5,0x00,Read,ACK
4.6242682000,1746,0xD5,0x59,Read,ACK
4.6242990000,1746,0xD5,0xFF,Read,ACK
4.6243294000,1746,0xD5,0xB3,Read,ACK
4.6243610000,1746,0xD5,0xFF,Read,NAK
4.6436016000,1748,0xD4,0x1E,Write,ACK
4.6436680000,1749,0xD5,0x07,Read,NAK
4.6437346000,1751,0xD4,0x28,Write,ACK
4.6438004000,1752,0xD5,0xE4,Read,ACK
4.6438308000,1752,0xD5,0x00,Read,ACK
4.6438612000,1752,0xD5,0x5A,Read,ACK
4.6438916000,1752,0xD5,0xFF,Read,ACK
4.6439220000,1752,0xD5,0x80,Read,ACK
4.6440116000,1752,0xD5,0x40,Read,NAK
4.6440782000,1754,0xD4,0x20,Write,ACK
4.6441430000,1755,0xD5,0x77,Read,ACK
4.6441732000,1755,0xD5,0xFC,Read,ACK
4.6442036000,1755,0xD5,0x56,Read,ACK
4.6442340000,1755,0xD5,0x00,Read,ACK
4.6442646000,1755,0xD5,0x59,Read,ACK
4.6442950000,1755,0xD5,0xFF,Read,ACK
4.6443252000,1755,0xD5,0xAF,Read,ACK
4.6443556000,1755,0xD5,0xFF,Read,NAK
4.6636172000,1757,0xD4,0x1E,Write,ACK
4.6636876000,1758,0xD5,0x07,Read,NAK
4.6637552000,1760,0xD4,0x28,Write,ACK
4.6638200000,1761,0xD5,0xE1,Read,ACK
4.6638504000,1761,0xD5,0x00,Read,ACK
4.6638808000,1761,0xD5,0x56,Read,ACK
4.6639112000,1761,0xD5,0xFF,Read,ACK
4.6639416000,1761,0xD5,0x82,Read,ACK
4.6640084000,1761,0xD5,0x40,Read,NAK
4.6640750000,1763,0xD4,0x20,Write,ACK
4.6641396000,1764,0xD5,0x7C,Read,ACK
4.6641700000,1764,0xD5,0xFC,Read,ACK
4.6642004000,1764,0xD5,0x5B,Read,ACK
4.6642308000,1764,0xD5,0x00,Read,ACK
4.6642612000,1764,0xD5,0x61,Read,ACK
4.6642916000,1764,0xD5,0xFF,Read,ACK
4.6643220000,1764,0xD5,0xAF,Read,ACK
4.6643524000,1764,0xD5,0xFF,Read,NAK
4.6836128000,1766,0xD4,0x1E,Write,ACK
4.6836776000,1767,0xD5,0x07,Read,NAK
4.6837442000,1769,0xD4,0x28,Write,ACK
4.6838092000,1770,0xD5,0xDC,Read,ACK
4.6838394000,1770,0xD5,0x00,Read,ACK
4.6838700000,1770,0xD5,0x55,Read,ACK
4.6839004000,1770,0xD5,0xFF,Read,ACK
4.6839306000,1770,0xD5,0x8A,Read,ACK
4.6840132000,1770,0xD5,0x40,Read,NAK
4.6840798000,1772,0xD4,0x20,Write,ACK
4.6841446000,1773,0xD5,0x78,Read,ACK
4.6841750000,1773,0xD5,0xFC,Read,ACK
4.6842054000,1773,0xD5,0x58,Read,ACK
4.6842360000,1773,0xD5,0x00,Read,ACK
4.6842664000,1773,0xD5,0x69,Read,ACK
4.6842968000,1773,0xD5,0xFF,Read,ACK
4.6843270000,1773,0xD5,0xB3,Read,ACK
4.6843574000,1773,0xD5,0xFF,Read,NAK
4.7036210000,1775,0xD4,0x1E,Write,ACK
4.7036886000,1776,0xD5,0x07,Read,NAK
4.7037550000,1778,0xD4,0x28,Write,ACK
4.7038198000,1779,0xD5,0xDA,Read,ACK
4.7038502000,1779,0xD5,0x00,Read,ACK
4.7038806000,1779,0xD5,0x52,Read,ACK
4.7039110000,1779,0xD5,0xFF,Read,ACK
4.7039412000,1779,0xD5,0x8A,Read,ACK
4.7040188000,1779,0xD5,0x40,Read,NAK
4.7040854000,1781,0xD4,0x20,Write,ACK
4.7041502000,1782,0xD5,0x79,Read,ACK
4.7041806000,1782,0xD5,0xFC,Read,ACK
4.7042108000,1782,0xD5,0x66,Read,ACK
4.7042412000,1782,0xD5,0x00,Read,ACK
4.7042718000,1782,0xD5,0x65,Read,ACK
4.7043022000,1782,0xD5,0xFF,Read,ACK
4.7043324000,1782,0xD5,0xB0,Read,ACK
4.7043628000,1782,0xD5,0xFF,Read,NAK
4.7236236000,1784,0xD4,0x1E,Write,ACK
4.7236884000,1785,0xD5,0x07,Read,NAK
4.7237548000,1787,0xD4,0x28,Write,ACK
4.7238196000,1788,0xD5,0xDA,Read,ACK
4.7238500000,1788,0xD5,0x00,Read,ACK
4.7238804000,1788,0xD5,0x52,Read,ACK
4.7239108000,1788,0xD5,0xFF,Read,ACK
4.7239412000,1788,0xD5,0x85,Read,ACK
4.7240262000,1788,0xD5,0x40,Read,NAK
4.7240986000,1790,0xD4,0x20,Write,ACK
4.7241720000,1791,0xD5,0x8C,Read,ACK
4.7242026000,1791,0xD5,0xFC,Read,ACK
4.7242332000,1791,0xD5,0x65,Read,ACK
4.7242640000,1791,0xD5,0x00,Read,ACK
4.7242946000,1791,0xD5,0x5D,Read,ACK
4.7243260000,1791,0xD5,0xFF,Read,ACK
4.7243566000,1791,0xD5,0xB0,Read,ACK
4.7243872000,1791,0xD5,0xFF,Read,NAK
4.7436332000,1793,0xD4,0x1E,Write,ACK
4.7437188000,1794,0xD5,0x07,Read,NAK
4.7437872000,1796,0xD4,0x28,Write,ACK
4.7438520000,1797,0xD5,0xDE,Read,ACK
4.7438824000,1797,0xD5,0x00,Read,ACK
4.7439128000,1797,0xD5,0x56,Read,ACK
4.7439432000,1797,0xD5,0xFF,Read,ACK
4.7440300000,1797,0xD5,0x7E,Read,ACK
4.7440604000,1797,0xD5,0x40,Read,NAK
4.7441270000,1799,0xD4,0x20,Write,ACK
4.7441918000,1800,0xD5,0x78,Read,ACK
4.7442222000,1800,0xD5,0xFC,Read,ACK
4.7442526000,1800,0xD5,0x63,Read,ACK
4.7442832000,1800,0xD5,0x00,Read,ACK
4.7443136000,1800,0xD5,0x52,Read,ACK
4.7443440000,1800,0xD5,0xFF,Read,ACK
4.7443744000,1800,0xD5,0xAE,Read,ACK
4.7444046000,1800,0xD5,0xFF,Read,NAK
4.7636386000,1802,0xD4,0x1E,Write,ACK
4.7637090000,1803,0xD5,0x07,Read,NAK
4.7637774000,1805,0xD4,0x28,Write,ACK
4.7638422000,1806,0xD5,0xDC,Read,ACK
4.7638726000,1806,0xD5,0x00,Read,ACK
4.7639030000,1806,0xD5,0x56,Read,ACK
4.7639334000,1806,0xD5,0xFF,Read,ACK
4.7639636000,1806,0xD5,0x84,Read,ACK
4.7640348000,1806,0xD5,0x40,Read,NAK
4.7641014000,1808,0xD4,0x20,Write,ACK
4.7641664000,1809,0xD5,0x7C,Read,ACK
4.7641968000,1809,0xD5,0xFC,Read,ACK
4.7642272000,1809,0xD5,0x53,Read,ACK
4.7642576000,1809,0xD5,0x00,Read,ACK
4.7642880000,1809,0xD5,0x64,Read,ACK
4.7643184000,1809,0xD5,0xFF,Read,ACK
4.7643488000,1809,0xD5,0xB1,Read,ACK
4.7643792000,1809,0xD5,0xFF,Read,NAK
4.7836498000,1811,0xD4,0x1E,Write,ACK
4.7837172000,1812,0xD5,0x07,Read,NAK
4.7837838000,1814,0xD4,0x28,Write,ACK
4.7838486000,1815,0xD5,0xDA,Read,ACK
4.7838788000,1815,0xD5,0x00,Read,ACK
4.7839094000,1815,0xD5,0x53,Read,ACK
4.7839396000,1815,0xD5,0xFF,Read,ACK
4.7839698000,1815,0xD5,0x8C,Read,ACK
4.7840400000,1815,0xD5,0x40,Read,NAK
4.7841064000,1817,0xD4,0x20,Write,ACK
4.7841712000,1818,0xD5,0x7F,Read,ACK
4.7842014000,1818,0xD5,0xFC,Read,ACK
4.7842318000,1818,0xD5,0x52,Read,ACK
4.7842622000,1818,0xD5,0x00,Read,ACK
4.7842926000,1818,0xD5,0x60,Read,ACK
4.7843230000,1818,0xD5,0xFF,Read,ACK
4.7843532000,1818,0xD5,0xB7,Read,ACK
4.7843836000,1818,0xD5,0xFF,Read,NAK
4.8036444000,1820,0xD4,0x1E,Write,ACK
4.8037092000,1821,0xD5,0x07,Read,NAK
4.8037754000,1823,0xD4,0x28,Write,ACK
4.8038404000,1824,0xD5,0xD7,Read,ACK
4.8038706000,1824,0xD5,0x00,Read,ACK
4.8039012000,1824,0xD5,0x51,Read,ACK
4.8039316000,1824,0xD5,0xFF,Read,ACK
4.8039618000,1824,0xD5,0x86,Read,ACK
4.8040488000,1824,0xD5,0x40,Read,NAK
4.8041152000,1826,0xD4,0x20,Write,ACK
4.8041800000,1827,0xD5,0x7A,Read,ACK
4.8042102000,1827,0xD5,0xFC,Read,ACK
4.8042406000,1827,0xD5,0x5E,Read,ACK
4.8042710000,1827,0xD5,0x00,Read,ACK
4.8043014000,1827,0xD5,0x55,Read,ACK
4.8043318000,1827,0xD5,0xFF,Read,ACK
4.8043620000,1827,0xD5,0xB9,Read,ACK
4.8043924000,1827,0xD5,0xFF,Read,NAK
4.8236464000,1829,0xD4,0x1E,Write,ACK
4.8237110000,1830,0xD5,0x07,Read,NAK
4.8237776000,1832,0xD4,0x28,Write,ACK
4.8238426000,1833,0xD5,0xD8,Read,ACK
4.8238730000,1833,0xD5,0x00,Read,ACK
4.8239034000,1833,0xD5,0x52,Read,ACK
4.8239338000,1833,0xD5,0xFF,Read,ACK
4.8239640000,1833,0xD5,0x80,Read,ACK
4.8240494000,1833,0xD5,0x40,Read,NAK
4.8241210000,1835,0xD4,0x20,Write,ACK
4.8241944000,1836,0xD5,0x7E,Read,ACK
4.8242260000,1836,0xD5,0xFC,Read,ACK
4.8242568000,1836,0xD5,0x6C,Read,ACK
4.8242874000,1836,0xD5,0x00,Read,ACK
4.8243182000,1836,0xD5,0x4F,Read,ACK
4.8243494000,1836,0xD5,0xFF,Read,ACK
4.8243800000,1836,0xD5,0xB9,Read,ACK
4.8244104000,1836,0xD5,0xFF,Read,NAK
4.8436552000,1838,0xD4,0x1E,Write,ACK
4.8437366000,1839,0xD5,0x07,Read,NAK
4.8438040000,1841,0xD4,0x28,Write,ACK
4.8438690000,1842,0xD5,0xE2,Read,ACK
4.8438994000,1842,0xD5,0x00,Read,ACK
4.8439298000,1842,0xD5,0x58,Read,ACK
4.8439602000,1842,0xD5,0xFF,Read,ACK
4.8439906000,1842,0xD5,0x86,Read,ACK
4.8440566000,1842,0xD5,0x40,Read,NAK
4.8441232000,1844,0xD4,0x20,Write,ACK
4.8441880000,1845,0xD5,0x76,Read,ACK
4.8442184000,1845,0xD5,0xFC,Read,ACK
4.8442488000,1845,0xD5,0x64,Read,ACK
4.8442792000,1845,0xD5,0x00,Read,ACK
4.8443096000,1845,0xD5,0x58,Read,ACK
4.8443400000,1845,0xD5,0xFF,Read,ACK
4.8443704000,1845,0xD5,0xB7,Read,ACK
4.8444008000,1845,0xD5,0xFF,Read,NAK
4.8636708000,1847,0xD4,0x1E,Write,ACK
4.8637414000,1848,0xD5,0x07,Read,NAK
4.8638088000,1850,0xD4,0x28,Write,ACK
4.8638738000,1851,0xD5,0xEF,Read,ACK
4.8639042000,1851,0xD5,0x00,Read,ACK
4.8639346000,1851,0xD5,0x5E,Read,ACK
4.8639650000,1851,0xD5,0xFF,Read,ACK
4.8639952000,1851,0xD5,0x82,Read,ACK
4.8640618000,1851,0xD5,0x40,Read,NAK
4.8641284000,1853,0xD4,0x20,Write,ACK
4.8641932000,1854,0xD5,0x75,Read,ACK
4.8642236000,1854,0xD5,0xFC,Read,ACK
4.8642538000,1854,0xD5,0x5E,Read,ACK
4.8642842000,1854,0xD5,0x00,Read,ACK
4.8643148000,1854,0xD5,0x67,Read,ACK
4.8643452000,1854,0xD5,0xFF,Read,ACK
4.8643754000,1854,0xD5,0xB4,Read,ACK
4.8644058000,1854,0xD5,0xFF,Read,NAK
4.8836684000,1856,0xD4,0x1E,Write,ACK
4.8837360000,1857,0xD5,0x07,Read,NAK
4.8838024000,1859,0xD4,0x28,Write,ACK
4.8838672000,1860,0xD5,0xEB,Read,ACK
4.8838974000,1860,0xD5,0x00,Read,ACK
4.8839278000,1860,0xD5,0x5E,Read,ACK
4.8839582000,1860,0xD5,0xFF,Read,ACK
4.8839884000,1860,0xD5,0x7C,Read,ACK
4.8841028000,1860,0xD5,0x40,Read,NAK
4.8841692000,1862,0xD4,0x20,Write,ACK
4.8842340000,1863,0xD5,0x82,Read,ACK
4.8842644000,1863,0xD5,0xFC,Read,ACK
4.8842948000,1863,0xD5,0x58,Read,ACK
4.8843252000,1863,0xD5,0x00,Read,ACK
4.8843556000,1863,0xD5,0x65,Read,ACK
4.8843860000,1863,0xD5,0xFF,Read,ACK
4.8844162000,1863,0xD5,0xB4,Read,ACK
4.8844466000,1863,0xD5,0xFF,Read,NAK
4.9036708000,1865,0xD4,0x1E,Write,ACK
4.9037354000,1866,0xD5,0x07,Read,NAK
4.9038018000,1868,0xD4,0x28,Write,ACK
4.9038668000,1869,0xD5,0xE6,Read,ACK
4.9038970000,1869,0xD5,0x00,Read,ACK
4.9039276000,1869,0xD5,0x64,Read,ACK
4.9039578000,1869,0xD5,0xFF,Read,ACK
4.9039882000,1869,0xD5,0x84,Read,ACK
4.9040712000,1869,0xD5,0x40,Read,NAK
4.9041378000,1871,0xD4,0x20,Write,ACK
4.9042026000,1872,0xD5,0x83,Read,ACK
4.9042330000,1872,0xD5,0xFC,Read,ACK
4.9042632000,1872,0xD5,0x57,Read,ACK
4.9042936000,1872,0xD5,0x00,Read,ACK
4.9043240000,1872,0xD5,0x61,Read,ACK
4.9043544000,1872,0xD5,0xFF,Read,ACK
4.9043846000,1872,0xD5,0xB2,Read,ACK
4.9044150000,1872,0xD5,0xFF,Read,NAK
4.9236810000,1874,0xD4,0x1E,Write,ACK
4.9237486000,1875,0xD5,0x07,Read,NAK
4.9238152000,1877,0xD4,0x28,Write,ACK
4.9238798000,1878,0xD5,0xE6,Read,ACK
4.9239102000,1878,0xD5,0x00,Read,ACK
4.9239406000,1878,0xD5,0x65,Read,ACK
4.9239710000,1878,0xD5,0xFF,Read,ACK
4.9240012000,1878,0xD5,0x8A,Read,ACK
4.9240806000,1878,0xD5,0x40,Read,NAK
4.9241504000,1880,0xD4,0x20,Write,ACK
4.9242232000,1881,0xD5,0x89,Read,ACK
4.9242550000,1881,0xD5,0xFC,Read,ACK
4.9242856000,1881,0xD5,0x5A,Read,ACK
4.9243164000,1881,0xD5,0x00,Read,ACK
4.9243484000,1881,0xD5,0x65,Read,ACK
4.9243790000,1881,0xD5,0xFF,Read,ACK
4.9244094000,1881,0xD5,0xAB,Read,ACK
4.9244402000,1881,0xD5,0xFF,Read,NAK
4.9436806000,1883,0xD4,0x1E,Write,ACK
4.9437474000,1884,0xD5,0x07,Read,NAK
4.9438138000,1886,0xD4,0x28,Write,ACK
4.9438796000,1887,0xD5,0xE7,Read,ACK
4.9439098000,1887,0xD5,0x00,Read,ACK
4.9439404000,1887,0xD5,0x5C,Read,ACK
4.9439708000,1887,0xD5,0xFF,Read,ACK
4.9440010000,1887,0xD5,0x8A,Read,ACK
4.9440832000,1887,0xD5,0x40,Read,NAK
4.9441498000,1889,0xD4,0x20,Write,ACK
4.9442146000,1890,0xD5,0x85,Read,ACK
4.9442450000,1890,0xD5,0xFC,Read,ACK
4.9442754000,1890,0xD5,0x53,Read,ACK
4.9443058000,1890,0xD5,0x00,Read,ACK
4.9443362000,1890,0xD5,0x67,Read,ACK
4.9443666000,1890,0xD5,0xFF,Read,ACK
4.9443970000,1890,0xD5,0xAF,Read,ACK
4.9444272000,1890,0xD5,0xFF,Read,NAK
4.9636982000,1892,0xD4,0x1E,Write,ACK
4.9637688000,1893,0xD5,0x07,Read,NAK
4.9638362000,1895,0xD4,0x28,Write,ACK
4.9639010000,1896,0xD5,0xE2,Read,ACK
4.9639314000,1896,0xD5,0x00,Read,ACK
4.9639618000,1896,0xD5,0x58,Read,ACK
4.9639922000,1896,0xD5,0xFF,Read,ACK
4.9640224000,1896,0xD5,0x83,Read,ACK
4.9640930000,1896,0xD5,0x40,Read,NAK
4.9641596000,1898,0xD4,0x20,Write,ACK
4.9642244000,1899,0xD5,0x7F,Read,ACK
4.9642548000,1899,0xD5,0xFC,Read,ACK
4.9642850000,1899,0xD5,0x58,Read,ACK
4.9643154000,1899,0xD5,0x00,Read,ACK
4.9643458000,1899,0xD5,0x60,Read,ACK
4.9643764000,1899,0xD5,0xFF,Read,ACK
4.9644066000,1899,0xD5,0xA7,Read,ACK
4.9644372000,1899,0xD5,0xFF,Read,NAK
4.9836920000,1901,0xD4,0x1E,Write,ACK
4.9837566000,1902,0xD5,0x07,Read,NAK
4.9838232000,1904,0xD4,0x28,Write,ACK
4.9838880000,1905,0xD5,0xDB,Read,ACK
4.9839182000,1905,0xD5,0x00,Read,ACK
4.9839486000,1905,0xD5,0x58,Read,ACK
4.9839790000,1905,0xD5,0xFF,Read,ACK
4.9840094000,1905,0xD5,0x85,Read,ACK
4.9840924000,1905,0xD5,0x40,Read,NAK
4.9841590000,1907,0xD4,0x20,Write,ACK
4.9842238000,1908,0xD5,0x7C,Read,ACK
4.9842542000,1908,0xD5,0xFC,Read,ACK
4.9842846000,1908,0xD5,0x56,Read,ACK
4.9843148000,1908,0xD5,0x00,Read,ACK
4.9843454000,1908,0xD5,0x65,Read,ACK
4.9843758000,1908,0xD5,0xFF,Read,ACK
4.9844062000,1908,0xD5,0xA5,Read,ACK
4.9844366000,1908,0xD5,0xFF,Read,NAK
5.0036972000,1910,0xD4,0x1E,Write,ACK
5.0037620000,1911,0xD5,0x07,Read,NAK
5.0038286000,1913,0xD4,0x28,Write,ACK
5.0038934000,1914,0xD5,0xD6,Read,ACK
5.0039238000,1914,0xD5,0x00,Read,ACK
5.0039542000,1914,0xD5,0x58,Read,ACK
5.0039846000,1914,0xD5,0xFF,Read,ACK
5.0040148000,1914,0xD5,0x88,Read,ACK
5.0040980000,1914,0xD5,0x40,Read,NAK
5.0041646000,1916,0xD4,0x20,Write,ACK
5.0042294000,1917,0xD5,0x7E,Read,ACK
5.0042596000,1917,0xD5,0xFC,Read,ACK
5.0042900000,1917,0xD5,0x5E,Read,ACK
5.0043204000,1917,0xD5,0x00,Read,ACK
5.0043508000,1917,0xD5,0x60,Read,ACK
5.0043812000,1917,0xD5,0xFF,Read,ACK
5.0044116000,1917,0xD5,0xA9,Read,ACK
5.0044420000,1917,0xD5,0xFF,Read,NAK
5.0237056000,1919,0xD4,0x1E,Write,ACK
5.0237732000,1920,0xD5,0x07,Read,NAK
5.0238398000,1922,0xD4,0x28,Write,ACK
5.0239046000,1923,0xD5,0xD4,Read,ACK
5.0239350000,1923,0xD5,0x00,Read,ACK
5.0239656000,1923,0xD5,0x57,Read,ACK
5.0239958000,1923,0xD5,0xFF,Read,ACK
5.0240262000,1923,0xD5,0x82,Read,ACK
5.0241066000,1923,0xD5,0x40,Read,NAK
5.0241764000,1925,0xD4,0x20,Write,ACK
5.0242500000,1926,0xD5,0x87,Read,ACK
5.0242826000,1926,0xD5,0xFC,Read,ACK
5.0243130000,1926,0xD5,0x5B,Read,ACK
5.0243436000,1926,0xD5,0x00,Read,ACK
5.0243744000,1926,0xD5,0x62,Read,ACK
5.0244058000,1926,0xD5,0xFF,Read,ACK
5.0244364000,1926,0xD5,0xAA,Read,ACK
5.0244672000,1926,0xD5,0xFF,Read,NAK
5.0437070000,1928,0xD4,0x1E,Write,ACK
5.0437736000,1929,0xD5,0x07,Read,NAK
5.0438402000,1931,0xD4,0x28,Write,ACK
5.0439060000,1932,0xD5,0xD8,Read,ACK
5.0439364000,1932,0xD5,0x00,Read,ACK
5.0439668000,1932,0xD5,0x58,Read,ACK
5.0439972000,1932,0xD5,0xFF,Read,ACK
5.0440274000,1932,0xD5,0x87,Read,ACK
5.0441178000,1932,0xD5,0x40,Read,NAK
5.0441844000,1934,0xD4,0x20,Write,ACK
5.0442492000,1935,0xD5,0x73,Read,ACK
5.0442796000,1935,0xD5,0xFC,Read,ACK
5.0443098000,1935,0xD5,0x56,Read,ACK
5.0443402000,1935,0xD5,0x00,Read,ACK
5.0443708000,1935,0xD5,0x58,Read,ACK
5.0444012000,1935,0xD5,0xFF,Read,ACK
5.0444314000,1935,0xD5,0xAB,Read,ACK
5.0444618000,1935,0xD5,0xFF,Read,NAK
5.0637226000,1937,0xD4,0x1E,Write,ACK
5.0637932000,1938,0xD5,0x07,Read,NAK
5.0638606000,1940,0xD4,0x28,Write,ACK
5.0639256000,1941,0xD5,0xDE,Read,ACK
5.0639558000,1941,0xD5,0x00,Read,ACK
5.0639864000,1941,0xD5,0x5F,Read,ACK
5.0640166000,1941,0xD5,0xFF,Read,ACK
5.0640470000,1941,0xD5,0x8E,Read,ACK
5.0641146000,1941,0xD5,0x40,Read,NAK
5.0641812000,1943,0xD4,0x20,Write,ACK
5.0642460000,1944,0xD5,0x7E,Read,ACK
5.0642762000,1944,0xD5,0xFC,Read,ACK
5.0643066000,1944,0xD5,0x60,Read,ACK
5.0643370000,1944,0xD5,0x00,Read,ACK
5.0643674000,1944,0xD5,0x57,Read,ACK
5.0643980000,1944,0xD5,0xFF,Read,ACK
5.0644282000,1944,0xD5,0xB1,Read,ACK
5.0644586000,1944,0xD5,0xFF,Read,NAK
5.0837182000,1946,0xD4,0x1E,Write,ACK
5.0837830000,1947,0xD5,0x07,Read,NAK
5.0838496000,1949,0xD4,0x28,Write,ACK
5.0839144000,1950,0xD5,0xE1,Read,ACK
5.0839448000,1950,0xD5,0x00,Read,ACK
5.0839752000,1950,0xD5,0x62,Read,ACK
5.0840056000,1950,0xD5,0xFF,Read,ACK
5.0840360000,1950,0xD5,0x89,Read,ACK
5.0841184000,1950,0xD5,0x40,Read,NAK
5.0841850000,1952,0xD4,0x20,Write,ACK
5.0842498000,1953,0xD5,0x81,Read,ACK
5.0842804000,1953,0xD5,0xFC,Read,ACK
5.0843106000,1953,0xD5,0x5D,Read,ACK
5.0843412000,1953,0xD5,0x00,Read,ACK
5.0843716000,1953,0xD5,0x66,Read,ACK
5.0844020000,1953,0xD5,0xFF,Read,ACK
5.0844324000,1953,0xD5,0xB3,Read,ACK
5.0844626000,1953,0xD5,0xFF,Read,NAK
5.1037284000,1955,0xD4,0x1E,Write,ACK
5.1037958000,1956,0xD5,0x07,Read,NAK
5.1038624000,1958,0xD4,0x28,Write,ACK
5.1039272000,1959,0xD5,0xE6,Read,ACK
5.1039576000,1959,0xD5,0x00,Read,ACK
5.1039880000,1959,0xD5,0x64,Read,ACK
5.1040184000,1959,0xD5,0xFF,Read,ACK
5.1040486000,1959,0xD5,0x86,Read,ACK
5.1041248000,1959,0xD5,0x40,Read,NAK
5.1041912000,1961,0xD4,0x20,Write,ACK
5.1042558000,1962,0xD5,0x83,Read,ACK
5.1042862000,1962,0xD5,0xFC,Read,ACK
5.1043166000,1962,0xD5,0x51,Read,ACK
5.1043470000,1962,0xD5,0x00,Read,ACK
5.1043774000,1962,0xD5,0x68,Read,ACK
5.1044078000,1962,0xD5,0xFF,Read,ACK
5.1044380000,1962,0xD5,0xA8,Read,ACK
5.1044684000,1962,0xD5,0xFF,Read,NAK
5.1237290000,1964,0xD4,0x1E,Write,ACK
5.1237938000,1965,0xD5,0x07,Read,NAK
5.1238604000,1967,0xD4,0x28,Write,ACK
5.1239252000,1968,0xD5,0xE8,Read,ACK
5.1239556000,1968,0xD5,0x00,Read,ACK
5.1239862000,1968,0xD5,0x68,Read,ACK
5.1240166000,1968,0xD5,0xFF,Read,ACK
5.1240468000,1968,0xD5,0x88,Read,ACK
5.1241358000,1968,0xD5,0x40,Read,NAK
5.1242054000,1970,0xD4,0x20,Write,ACK
5.1242804000,1971,0xD5,0x88,Read,ACK
5.1243128000,1971,0xD5,0xFC,Read,ACK
5.1243434000,1971,0xD5,0x5A,Read,ACK
5.1243740000,1971,0xD5,0x00,Read,ACK
5.1244048000,1971,0xD5,0x69,Read,ACK
5.1244354000,1971,0xD5,0xFF,Read,ACK
5.1244660000,1971,0xD5,0xA5,Read,ACK
5.1244970000,1971,0xD5,0xFF,Read,NAK
5.1437334000,1973,0xD4,0x1E,Write,ACK
5.1438042000,1974,0xD5,0x07,Read,NAK
5.1438716000,1976,0xD4,0x28,Write,ACK
5.1439364000,1977,0xD5,0xEA,Read,ACK
5.1439668000,1977,0xD5,0x00,Read,ACK
5.1439974000,1977,0xD5,0x61,Read,ACK
5.1440278000,1977,0xD5,0xFF,Read,ACK
5.1440580000,1977,0xD5,0x84,Read,ACK
5.1441354000,1977,0xD5,0x40,Read,NAK
5.1442018000,1979,0xD4,0x20,Write,ACK
5.1442668000,1980,0xD5,0x7F,Read,ACK
5.1442972000,1980,0xD5,0xFC,Read,ACK
5.1443276000,1980,0xD5,0x63,Read,ACK
5.1443580000,1980,0xD5,0x00,Read,ACK
5.1443884000,1980,0xD5,0x5E,Read,ACK
5.1444188000,1980,0xD5,0xFF,Read,ACK
5.1444492000,1980,0xD5,0xA0,Read,ACK
5.1444796000,1980,0xD5,0xFF,Read,NAK
5.1637500000,1982,0xD4,0x1E,Write,ACK
5.1638204000,1983,0xD5,0x07,Read,NAK
5.1638880000,1985,0xD4,0x28,Write,ACK
5.1639528000,1986,0xD5,0xD2,Read,ACK
5.1639832000,1986,0xD5,0x00,Read,ACK
5.1640136000,1986,0xD5,0x37,Read,ACK
5.1640440000,1986,0xD5,0xFF,Read,ACK
5.1640744000,1986,0xD5,0x82,Read,ACK
5.1641406000,1986,0xD5,0x40,Read,NAK
5.1642072000,1988,0xD4,0x20,Write,ACK
5.1642720000,1989,0xD5,0x83,Read,ACK
5.1643026000,1989,0xD5,0xFC,Read,ACK
5.1643330000,1989,0xD5,0x34,Read,ACK
5.1643634000,1989,0xD5,0x00,Read,ACK
5.1643938000,1989,0xD5,0xA7,Read,ACK
5.1644242000,1989,0xD5,0xFF,Read,ACK
5.1644546000,1989,0xD5,0xA6,Read,ACK
5.1644850000,1989,0xD5,0xFF,Read,NAK
5.1837446000,1991,0xD4,0x1E,Write,ACK
5.1838094000,1992,0xD5,0x07,Read,NAK
5.1838760000,1994,0xD4,0x28,Write,ACK
5.1839408000,1995,0xD5,0xC6,Read,ACK
5.1839714000,1995,0xD5,0x00,Read,ACK
5.1840018000,1995,0xD5,0x2A,Read,ACK
5.1840322000,1995,0xD5,0xFF,Read,ACK
5.1840626000,1995,0xD5,0x8C,Read,ACK
5.1841446000,1995,0xD5,0x40,Read,NAK
5.1842112000,1997,0xD4,0x20,Write,ACK
5.1842760000,1998,0xD5,0x85,Read,ACK
5.1843064000,1998,0xD5,0xFC,Read,ACK
5.1843368000,1998,0xD5,0x66,Read,ACK
5.1843672000,1998,0xD5,0x00,Read,ACK
5.1843976000,1998,0xD5,0x4F,Read,ACK
5.1844280000,1998,0xD5,0xFF,Read,ACK
5.1844582000,1998,0xD5,0xB0,Read,ACK
5.1844886000,1998,0xD5,0xFF,Read,NAK
5.2037528000,2000,0xD4,0x1E,Write,ACK
5.2038204000,2001,0xD5,0x07,Read,NAK
5.2038868000,2003,0xD4,0x28,Write,ACK
5.2039516000,2004,0xD5,0xD8,Read,ACK
5.2039818000,2004,0xD5,0x00,Read,ACK
5.2040124000,2004,0xD5,0x44,Read,ACK
5.2040428000,2004,0xD5,0xFF,Read,ACK
5.2040730000,2004,0xD5,0x7E,Read,ACK
5.2041554000,2004,0xD5,0x40,Read,NAK
5.2042220000,2006,0xD4,0x20,Write,ACK
5.2042866000,2007,0xD5,0x81,Read,ACK
5.2043170000,2007,0xD5,0xFC,Read,ACK
5.2043474000,2007,0xD5,0x76,Read,ACK
5.2043778000,2007,0xD5,0x00,Read,ACK
5.2044082000,2007,0xD5,0x39,Read,ACK
5.2044386000,2007,0xD5,0xFF,Read,ACK
5.2044688000,2007,0xD5,0xBA,Read,ACK
5.2044990000,2007,0xD5,0xFF,Read,NAK
5.2237554000,2009,0xD4,0x1E,Write,ACK
5.2238202000,2010,0xD5,0x07,Read,NAK
5.2238866000,2012,0xD4,0x28,Write,ACK
5.2239516000,2013,0xD5,0xE1,Read,ACK
5.2239820000,2013,0xD5,0x00,Read,ACK
5.2240126000,2013,0xD5,0x54,Read,ACK
5.2240430000,2013,0xD5,0xFF,Read,ACK
5.2240732000,2013,0xD5,0x85,Read,ACK
5.2241580000,2013,0xD5,0x40,Read,NAK
5.2242278000,2015,0xD4,0x20,Write,ACK
5.2243028000,2016,0xD5,0x87,Read,ACK
5.2243354000,2016,0xD5,0xFC,Read,ACK
5.2243660000,2016,0xD5,0x4C,Read,ACK
5.2243966000,2016,0xD5,0x00,Read,ACK
5.2244280000,2016,0xD5,0x73,Read,ACK
5.2244586000,2016,0xD5,0xFF,Read,ACK
5.2244890000,2016,0xD5,0xBA,Read,ACK
5.2245202000,2016,0xD5,0xFF,Read,NAK
5.2437606000,2018,0xD4,0x1E,Write,ACK
5.2438292000,2019,0xD5,0x07,Read,NAK
5.2438968000,2021,0xD4,0x28,Write,ACK
5.2439616000,2022,0xD5,0xE2,Read,ACK
5.2439920000,2022,0xD5,0x00,Read,ACK
5.2440224000,2022,0xD5,0x58,Read,ACK
5.2440528000,2022,0xD5,0xFF,Read,ACK
5.2440830000,2022,0xD5,0x8D,Read,ACK
5.2441662000,2022,0xD5,0x40,Read,NAK
5.2442326000,2024,0xD4,0x20,Write,ACK
5.2442974000,2025,0xD5,0x81,Read,ACK
5.2443280000,2025,0xD5,0xFC,Read,ACK
5.2443582000,2025,0xD5,0x60,Read,ACK
5.2443888000,2025,0xD5,0x00,Read,ACK
5.2444192000,2025,0xD5,0x69,Read,ACK
5.2444496000,2025,0xD5,0xFF,Read,ACK
5.2444800000,2025,0xD5,0xBC,Read,ACK
5.2445104000,2025,0xD5,0xFF,Read,NAK
5.2637764000,2027,0xD4,0x1E,Write,ACK
5.2638468000,2028,0xD5,0x07,Read,NAK
5.2639142000,2030,0xD4,0x28,Write,ACK
5.2639792000,2031,0xD5,0xEE,Read,ACK
5.2640094000,2031,0xD5,0x00,Read,ACK
5.2640400000,2031,0xD5,0x58,Read,ACK
5.2640704000,2031,0xD5,0xFF,Read,ACK
5.2641006000,2031,0xD5,0x7C,Read,ACK
5.2641668000,2031,0xD5,0x40,Read,NAK
5.2642334000,2033,0xD4,0x20,Write,ACK
5.2642984000,2034,0xD5,0x78,Read,ACK
5.2643288000,2034,0xD5,0xFC,Read,ACK
5.2643590000,2034,0xD5,0x66,Read,ACK
5.2643896000,2034,0xD5,0x00,Read,ACK
5.2644200000,2034,0xD5,0x52,Read,ACK
5.2644504000,2034,0xD5,0xFF,Read,ACK
5.2644808000,2034,0xD5,0xB6,Read,ACK
5.2645110000,2034,0xD5,0xFF,Read,NAK
5.2837758000,2036,0xD4,0x1E,Write,ACK
5.2838434000,2037,0xD5,0x07,Read,NAK
5.2839098000,2039,0xD4,0x28,Write,ACK
5.2839744000,2040,0xD5,0xE9,Read,ACK
5.2840048000,2040,0xD5,0x00,Read,ACK
5.2840352000,2040,0xD5,0x4F,Read,ACK
5.2840656000,2040,0xD5,0xFF,Read,ACK
5.2840958000,2040,0xD5,0x8A,Read,ACK
5.2841766000,2040,0xD5,0x40,Read,NAK
5.2842430000,2042,0xD4,0x20,Write,ACK
5.2843078000,2043,0xD5,0x7C,Read,ACK
5.2843382000,2043,0xD5,0xFC,Read,ACK
5.2843686000,2043,0xD5,0x35,Read,ACK
5.2843988000,2043,0xD5,0x00,Read,ACK
5.2844292000,2043,0xD5,0x88,Read,ACK
5.2844598000,2043,0xD5,0xFF,Read,ACK
5.2844902000,2043,0xD5,0xBB,Read,ACK
5.2845204000,2043,0xD5,0xFF,Read,NAK
5.3037762000,2045,0xD4,0x1E,Write,ACK
5.3038410000,2046,0xD5,0x07,Read,NAK
5.3039074000,2048,0xD4,0x28,Write,ACK
5.3039724000,2049,0xD5,0xE5,Read,ACK
5.3040026000,2049,0xD5,0x00,Read,ACK
5.3040330000,2049,0xD5,0x4C,Read,ACK
5.3040634000,2049,0xD5,0xFF,Read,ACK
5.3040936000,2049,0xD5,0x8E,Read,ACK
5.3041754000,2049,0xD5,0x40,Read,NAK
5.3042418000,2051,0xD4,0x20,Write,ACK
5.3043066000,2052,0xD5,0x8F,Read,ACK
5.3043370000,2052,0xD5,0xFC,Read,ACK
5.3043674000,2052,0xD5,0x67,Read,ACK
5.3043978000,2052,0xD5,0x00,Read,ACK
5.3044282000,2052,0xD5,0x4B,Read,ACK
5.3044586000,2052,0xD5,0xFF,Read,ACK
5.3044888000,2052,0xD5,0xBE,Read,ACK
5.3045192000,2052,0xD5,0xFF,Read,NAK
5.3237864000,2054,0xD4,0x1E,Write,ACK
5.3238540000,2055,0xD5,0x07,Read,NAK
5.3239206000,2057,0xD4,0x28,Write,ACK
5.3239854000,2058,0xD5,0xE7,Read,ACK
5.3240158000,2058,0xD5,0x00,Read,ACK
5.3240462000,2058,0xD5,0x52,Read,ACK
5.3240766000,2058,0xD5,0xFF,Read,ACK
5.3241068000,2058,0xD5,0x89,Read,ACK
5.3241856000,2058,0xD5,0x40,Read,NAK
5.3242552000,2060,0xD4,0x20,Write,ACK
5.3243296000,2061,0xD5,0x91,Read,ACK
5.3243622000,2061,0xD5,0xFC,Read,ACK
5.3243928000,2061,0xD5,0x50,Read,ACK
5.3244234000,2061,0xD5,0x00,Read,ACK
5.3244542000,2061,0xD5,0x74,Read,ACK
5.3244848000,2061,0xD5,0xFF,Read,ACK
5.3245154000,2061,0xD5,0xBA,Read,ACK
5.3245458000,2061,0xD5,0xFF,Read,NAK
5.3437860000,2063,0xD4,0x1E,Write,ACK
5.3438528000,2064,0xD5,0x07,Read,NAK
5.3439194000,2066,0xD4,0x28,Write,ACK
5.3439852000,2067,0xD5,0xE0,Read,ACK
5.3440156000,2067,0xD5,0x00,Read,ACK
5.3440460000,2067,0xD5,0x5A,Read,ACK
5.3440764000,2067,0xD5,0xFF,Read,ACK
5.3441066000,2067,0xD5,0x92,Read,ACK
5.3441882000,2067,0xD5,0x40,Read,NAK
5.3442548000,2069,0xD4,0x20,Write,ACK
5.3443196000,2070,0xD5,0x8D,Read,ACK
5.3443500000,2070,0xD5,0xFC,Read,ACK
5.3443804000,2070,0xD5,0x56,Read,ACK
5.3444108000,2070,0xD5,0x00,Read,ACK
5.3444412000,2070,0xD5,0x5E,Read,ACK
5.3444716000,2070,0xD5,0xFF,Read,ACK
5.3445018000,2070,0xD5,0xB6,Read,ACK
5.3445322000,2070,0xD5,0xFF,Read,NAK
5.3638026000,2072,0xD4,0x1E,Write,ACK
5.3638730000,2073,0xD5,0x07,Read,NAK
5.3639406000,2075,0xD4,0x28,Write,ACK
5.3640054000,2076,0xD5,0xD8,Read,ACK
5.3640358000,2076,0xD5,0x00,Read,ACK
5.3640662000,2076,0xD5,0x66,Read,ACK
5.3640966000,2076,0xD5,0xFF,Read,ACK
5.3641270000,2076,0xD5,0x8A,Read,ACK
5.3641978000,2076,0xD5,0x40,Read,NAK
5.3642644000,2078,0xD4,0x20,Write,ACK
5.3643292000,2079,0xD5,0x89,Read,ACK
5.3643596000,2079,0xD5,0xFC,Read,ACK
5.3643898000,2079,0xD5,0x50,Read,ACK
5.3644204000,2079,0xD5,0x00,Read,ACK
5.3644508000,2079,0xD5,0x6B,Read,ACK
5.3644812000,2079,0xD5,0xFF,Read,ACK
5.3645114000,2079,0xD5,0xB9,Read,ACK
5.3645420000,2079,0xD5,0xFF,Read,NAK
5.3838002000,2081,0xD4,0x1E,Write,ACK
5.3838678000,2082,0xD5,0x07,Read,NAK
5.3839342000,2084,0xD4,0x28,Write,ACK
5.3839990000,2085,0xD5,0xD8,Read,ACK
5.3840294000,2085,0xD5,0x00,Read,ACK
5.3840598000,2085,0xD5,0x6D,Read,ACK
5.3840902000,2085,0xD5,0xFF,Read,ACK
5.3841204000,2085,0xD5,0x86,Read,ACK
5.3841990000,2085,0xD5,0x40,Read,NAK
5.3842654000,2087,0xD4,0x20,Write,ACK
5.3843302000,2088,0xD5,0x8D,Read,ACK
5.3843606000,2088,0xD5,0xFC,Read,ACK
5.3843908000,2088,0xD5,0x5F,Read,ACK
5.3844210000,2088,0xD5,0x00,Read,ACK
5.3844516000,2088,0xD5,0x5D,Read,ACK
5.3844820000,2088,0xD5,0xFF,Read,ACK
5.3845122000,2088,0xD5,0xB9,Read,ACK
5.3845426000,2088,0xD5,0xFF,Read,NAK
5.4038026000,2090,0xD4,0x1E,Write,ACK
5.4038672000,2091,0xD5,0x07,Read,NAK
5.4039338000,2093,0xD4,0x28,Write,ACK
5.4039986000,2094,0xD5,0xDE,Read,ACK
5.4040290000,2094,0xD5,0x00,Read,ACK
5.4040594000,2094,0xD5,0x5A,Read,ACK
5.4040898000,2094,0xD5,0xFF,Read,ACK
5.4041202000,2094,0xD5,0x95,Read,ACK
5.4042022000,2094,0xD5,0x40,Read,NAK
5.4042686000,2096,0xD4,0x20,Write,ACK
5.4043334000,2097,0xD5,0x85,Read,ACK
5.4043638000,2097,0xD5,0xFC,Read,ACK
5.4043940000,2097,0xD5,0x54,Read,ACK
5.4044244000,2097,0xD5,0x00,Read,ACK
5.4044548000,2097,0xD5,0x58,Read,ACK
5.4044852000,2097,0xD5,0xFF,Read,ACK
5.4045156000,2097,0xD5,0xB5,Read,ACK
5.4045458000,2097,0xD5,0xFF,Read,NAK
5.4238110000,2099,0xD4,0x1E,Write,ACK
5.4238786000,2100,0xD5,0x07,Read,NAK
5.4239452000,2102,0xD4,0x28,Write,ACK
5.4240100000,2103,0xD5,0xE0,Read,ACK
5.4240404000,2103,0xD5,0x00,Read,ACK
5.4240710000,2103,0xD5,0x5C,Read,ACK
5.4241012000,2103,0xD5,0xFF,Read,ACK
5.4241316000,2103,0xD5,0x8A,Read,ACK
5.4242166000,2103,0xD5,0x40,Read,NAK
5.4242866000,2105,0xD4,0x20,Write,ACK
5.4243596000,2106,0xD5,0x83,Read,ACK
5.4243908000,2106,0xD5,0xFC,Read,ACK
5.4244214000,2106,0xD5,0x57,Read,ACK
5.4244522000,2106,0xD5,0x00,Read,ACK
5.4244830000,2106,0xD5,0x61,Read,ACK
5.4245138000,2106,0xD5,0xFF,Read,ACK
5.4245444000,2106,0xD5,0xB2,Read,ACK
5.4245756000,2106,0xD5,0xFF,Read,NAK
5.4438116000,2108,0xD4,0x1E,Write,ACK
5.4438792000,2109,0xD5,0x07,Read,NAK
5.4439458000,2111,0xD4,0x28,Write,ACK
5.4440118000,2112,0xD5,0xE4,Read,ACK
5.4440422000,2112,0xD5,0x00,Read,ACK
5.4440726000,2112,0xD5,0x61,Read,ACK
5.4441030000,2112,0xD5,0xFF,Read,ACK
5.4441334000,2112,0xD5,0x8D,Read,ACK
5.4442148000,2112,0xD5,0x40,Read,NAK
5.4442812000,2114,0xD4,0x20,Write,ACK
5.4443462000,2115,0xD5,0x85,Read,ACK
5.4443766000,2115,0xD5,0xFC,Read,ACK
5.4444068000,2115,0xD5,0x58,Read,ACK
5.4444372000,2115,0xD5,0x00,Read,ACK
5.4444678000,2115,0xD5,0x62,Read,ACK
5.4444982000,2115,0xD5,0xFF,Read,ACK
5.4445284000,2115,0xD5,0xB2,Read,ACK
5.4445588000,2115,0xD5,0xFF,Read,NAK
5.4638300000,2117,0xD4,0x1E,Write,ACK
5.4639004000,2118,0xD5,0x07,Read,NAK
5.4639680000,2120,0xD4,0x28,Write,ACK
5.4640328000,2121,0xD5,0xE4,Read,ACK
5.4640632000,2121,0xD5,0x00,Read,ACK
5.4640936000,2121,0xD5,0x64,Read,ACK
5.4641240000,2121,0xD5,0xFF,Read,ACK
5.4641542000,2121,0xD5,0x99,Read,ACK
5.4642200000,2121,0xD5,0x40,Read,NAK
5.4642866000,2123,0xD4,0x20,Write,ACK
5.4643514000,2124,0xD5,0x81,Read,ACK
5.4643818000,2124,0xD5,0xFC,Read,ACK
5.4644122000,2124,0xD5,0x56,Read,ACK
5.4644426000,2124,0xD5,0x00,Read,ACK
5.4644730000,2124,0xD5,0x66,Read,ACK
5.4645034000,2124,0xD5,0xFF,Read,ACK
5.4645338000,2124,0xD5,0xB3,Read,ACK
5.4645642000,2124,0xD5,0xFF,Read,NAK
5.4838236000,2126,0xD4,0x1E,Write,ACK
5.4838884000,2127,0xD5,0x07,Read,NAK
5.4839548000,2129,0xD4,0x28,Write,ACK
5.4840198000,2130,0xD5,0xE5,Read,ACK
5.4840502000,2130,0xD5,0x00,Read,ACK
5.4840806000,2130,0xD5,0x62,Read,ACK
5.4841112000,2130,0xD5,0xFF,Read,ACK
5.4841414000,2130,0xD5,0x91,Read,ACK
5.4842564000,2130,0xD5,0x40,Read,NAK
5.4843230000,2132,0xD4,0x20,Write,ACK
5.4843878000,2133,0xD5,0x8D,Read,ACK
5.4844182000,2133,0xD5,0xFC,Read,ACK
5.4844484000,2133,0xD5,0x5B,Read,ACK
5.4844790000,2133,0xD5,0x00,Read,ACK
5.4845094000,2133,0xD5,0x52,Read,ACK
5.4845398000,2133,0xD5,0xFF,Read,ACK
5.4845700000,2133,0xD5,0xAC,Read,ACK
5.4846004000,2133,0xD5,0xFF,Read,NAK
5.5038338000,2135,0xD4,0x1E,Write,ACK
5.5039012000,2136,0xD5,0x07,Read,NAK
5.5039678000,2138,0xD4,0x28,Write,ACK
5.5040324000,2139,0xD5,0xE6,Read,ACK
5.5040628000,2139,0xD5,0x00,Read,ACK
5.5040932000,2139,0xD5,0x5E,Read,ACK
5.5041236000,2139,0xD5,0xFF,Read,ACK
5.5041538000,2139,0xD5,0x86,Read,ACK
5.5042348000,2139,0xD5,0x40,Read,NAK
5.5043012000,2141,0xD4,0x20,Write,ACK
5.5043660000,2142,0xD5,0x8B,Read,ACK
5.5043964000,2142,0xD5,0xFC,Read,ACK
5.5044268000,2142,0xD5,0x5A,Read,ACK
5.5044572000,2142,0xD5,0x00,Read,ACK
5.5044876000,2142,0xD5,0x60,Read,ACK
5.5045180000,2142,0xD5,0xFF,Read,ACK
5.5045482000,2142,0xD5,0xB0,Read,ACK
5.5045786000,2142,0xD5,0xFF,Read,NAK
5.5238344000,2144,0xD4,0x1E,Write,ACK
5.5238992000,2145,0xD5,0x07,Read,NAK
5.5239656000,2147,0xD4,0x28,Write,ACK
5.5240306000,2148,0xD5,0xE2,Read,ACK
5.5240610000,2148,0xD5,0x00,Read,ACK
5.5240916000,2148,0xD5,0x5C,Read,ACK
5.5241218000,2148,0xD5,0xFF,Read,ACK
5.5241522000,2148,0xD5,0x88,Read,ACK
5.5242366000,2148,0xD5,0x40,Read,NAK
5.5243064000,2150,0xD4,0x20,Write,ACK
5.5243802000,2151,0xD5,0x81,Read,ACK
5.5244110000,2151,0xD5,0xFC,Read,ACK
5.5244416000,2151,0xD5,0x57,Read,ACK
5.5244722000,2151,0xD5,0x00,Read,ACK
5.5245038000,2151,0xD5,0x5B,Read,ACK
5.5245344000,2151,0xD5,0xFF,Read,ACK
5.5245650000,2151,0xD5,0xB2,Read,ACK
5.5245970000,2151,0xD5,0xFF,Read,NAK
5.5438388000,2153,0xD4,0x1E,Write,ACK
5.5439054000,2154,0xD5,0x07,Read,NAK
5.5439718000,2156,0xD4,0x28,Write,ACK
5.5440378000,2157,0xD5,0xDD,Read,ACK
5.5440682000,2157,0xD5,0x00,Read,ACK
5.5440986000,2157,0xD5,0x5A,Read,ACK
5.5441290000,2157,0xD5,0xFF,Read,ACK
5.5441594000,2157,0xD5,0x8E,Read,ACK
5.5442418000,2157,0xD5,0x40,Read,NAK
5.5443084000,2159,0xD4,0x20,Write,ACK
5.5443732000,2160,0xD5,0x8B,Read,ACK
5.5444036000,2160,0xD5,0xFC,Read,ACK
5.5444340000,2160,0xD5,0x53,Read,ACK
5.5444644000,2160,0xD5,0x00,Read,ACK
5.5444948000,2160,0xD5,0x5A,Read,ACK
5.5445252000,2160,0xD5,0xFF,Read,ACK
5.5445556000,2160,0xD5,0xAD,Read,ACK
5.5445858000,2160,0xD5,0xFF,Read,NAK
5.5638544000,2162,0xD4,0x1E,Write,ACK
5.5639248000,2163,0xD5,0x07,Read,NAK
5.5639922000,2165,0xD4,0x28,Write,ACK
5.5640572000,2166,0xD5,0xDD,Read,ACK
5.5640874000,2166,0xD5,0x00,Read,ACK
5.5641180000,2166,0xD5,0x5A,Read,ACK
5.5641482000,2166,0xD5,0xFF,Read,ACK
5.5641786000,2166,0xD5,0x8C,Read,ACK
5.5642518000,2166,0xD5,0x40,Read,NAK
5.5643182000,2168,0xD4,0x20,Write,ACK
5.5643830000,2169,0xD5,0x89,Read,ACK
5.5644136000,2169,0xD5,0xFC,Read,ACK
5.5644440000,2169,0xD5,0x58,Read,ACK
5.5644744000,2169,0xD5,0x00,Read,ACK
5.5645048000,2169,0xD5,0x58,Read,ACK
5.5645352000,2169,0xD5,0xFF,Read,ACK
5.5645656000,2169,0xD5,0xA6,Read,ACK
5.5645958000,2169,0xD5,0xFF,Read,NAK
5.5838500000,2171,0xD4,0x1E,Write,ACK
5.5839148000,2172,0xD5,0x07,Read,NAK
5.5839812000,2174,0xD4,0x28,Write,ACK
5.5840462000,2175,0xD5,0xE5,Read,ACK
5.5840766000,2175,0xD5,0x00,Read,ACK
5.5841070000,2175,0xD5,0x54,Read,ACK
5.5841374000,2175,0xD5,0xFF,Read,ACK
5.5841676000,2175,0xD5,0x86,Read,ACK
5.5842546000,2175,0xD5,0x40,Read,NAK
5.5843210000,2177,0xD4,0x20,Write,ACK
5.5843860000,2178,0xD5,0x91,Read,ACK
5.5844164000,2178,0xD5,0xFC,Read,ACK
5.5844466000,2178,0xD5,0x5C,Read,ACK
5.5844770000,2178,0xD5,0x00,Read,ACK
5.5845076000,2178,0xD5,0x56,Read,ACK
5.5845380000,2178,0xD5,0xFF,Read,ACK
5.5845682000,2178,0xD5,0xB1,Read,ACK
5.5845986000,2178,0xD5,0xFF,Read,NAK
5.6038582000,2180,0xD4,0x1E,Write,ACK
5.6039258000,2181,0xD5,0x07,Read,NAK
5.6039922000,2183,0xD4,0x28,Write,ACK
5.6040570000,2184,0xD5,0xE4,Read,ACK
5.6040874000,2184,0xD5,0x00,Read,ACK
5.6041178000,2184,0xD5,0x4C,Read,ACK
5.6041482000,2184,0xD5,0xFF,Read,ACK
5.6041784000,2184,0xD5,0x8A,Read,ACK
5.6042596000,2184,0xD5,0x40,Read,NAK
5.6043260000,2186,0xD4,0x20,Write,ACK
5.6043908000,2187,0xD5,0x91,Read,ACK
5.6044212000,2187,0xD5,0xFC,Read,ACK
5.6044516000,2187,0xD5,0x50,Read,ACK
5.6044820000,2187,0xD5,0x00,Read,ACK
5.6045124000,2187,0xD5,0x72,Read,ACK
5.6045428000,2187,0xD5,0xFF,Read,ACK
5.6045732000,2187,0xD5,0xB7,Read,ACK
5.6046034000,2187,0xD5,0xFF,Read,NAK
5.6238608000,2189,0xD4,0x1E,Write,ACK
5.6239256000,2190,0xD5,0x07,Read,NAK
5.6239922000,2192,0xD4,0x28,Write,ACK
5.6240570000,2193,0xD5,0xD8,Read,ACK
5.6240874000,2193,0xD5,0x00,Read,ACK
5.6241180000,2193,0xD5,0x4E,Read,ACK
5.6241484000,2193,0xD5,0xFF,Read,ACK
5.6241786000,2193,0xD5,0x8D,Read,ACK
5.6242686000,2193,0xD5,0x40,Read,NAK
5.6243382000,2195,0xD4,0x20,Write,ACK
5.6244122000,2196,0xD5,0x8D,Read,ACK
5.6244448000,2196,0xD5,0xFC,Read,ACK
5.6244752000,2196,0xD5,0x53,Read,ACK
5.6245060000,2196,0xD5,0x00,Read,ACK
5.6245366000,2196,0xD5,0x69,Read,ACK
5.6245674000,2196,0xD5,0xFF,Read,ACK
5.6245980000,2196,0xD5,0xBC,Read,ACK
5.6246288000,2196,0xD5,0xFF,Read,NAK
5.6438652000,2198,0xD4,0x1E,Write,ACK
5.6439358000,2199,0xD5,0x07,Read,NAK
5.6440034000,2201,0xD4,0x28,Write,ACK
5.6440684000,2202,0xD5,0xD2,Read,ACK
5.6440988000,2202,0xD5,0x00,Read,ACK
5.6441294000,2202,0xD5,0x55,Read,ACK
5.6441598000,2202,0xD5,0xFF,Read,ACK
5.6441900000,2202,0xD5,0x88,Read,ACK
5.6442684000,2202,0xD5,0x40,Read,NAK
5.6443350000,2204,0xD4,0x20,Write,ACK
5.6443998000,2205,0xD5,0x8B,Read,ACK
5.6444302000,2205,0xD5,0xFC,Read,ACK
5.6444606000,2205,0xD5,0x60,Read,ACK
5.6444910000,2205,0xD5,0x00,Read,ACK
5.6445216000,2205,0xD5,0x61,Read,ACK
5.6445520000,2205,0xD5,0xFF,Read,ACK
5.6445824000,2205,0xD5,0xB9,Read,ACK
5.6446128000,2205,0xD5,0xFF,Read,NAK
5.6638818000,2207,0xD4,0x1E,Write,ACK
5.6639522000,2208,0xD5,0x07,Read,NAK
5.6640196000,2210,0xD4,0x28,Write,ACK
5.6640846000,2211,0xD5,0xD8,Read,ACK
5.6641148000,2211,0xD5,0x00,Read,ACK
5.6641454000,2211,0xD5,0x5C,Read,ACK
5.6641758000,2211,0xD5,0xFF,Read,ACK
5.6642060000,2211,0xD5,0x8C,Read,ACK
5.6642780000,2211,0xD5,0x40,Read,NAK
5.6643444000,2213,0xD4,0x20,Write,ACK
5.6644092000,2214,0xD5,0x96,Read,ACK
5.6644396000,2214,0xD5,0xFC,Read,ACK
5.6644700000,2214,0xD5,0x6B,Read,ACK
5.6645004000,2214,0xD5,0x00,Read,ACK
5.6645308000,2214,0xD5,0x3F,Read,ACK
5.6645612000,2214,0xD5,0xFF,Read,ACK
5.6645916000,2214,0xD5,0xB9,Read,ACK
5.6646218000,2214,0xD5,0xFF,Read,NAK
5.6838812000,2216,0xD4,0x1E,Write,ACK
5.6839486000,2217,0xD5,0x07,Read,NAK
5.6840152000,2219,0xD4,0x28,Write,ACK
5.6840800000,2220,0xD5,0xFB,Read,ACK
5.6841102000,2220,0xD5,0x00,Read,ACK
5.6841406000,2220,0xD5,0x66,Read,ACK
5.6841710000,2220,0xD5,0xFF,Read,ACK
5.6842014000,2220,0xD5,0x7E,Read,ACK
5.6842790000,2220,0xD5,0x40,Read,NAK
5.6843454000,2222,0xD4,0x20,Write,ACK
5.6844102000,2223,0xD5,0x9A,Read,ACK
5.6844406000,2223,0xD5,0xFC,Read,ACK
5.6844708000,2223,0xD5,0x56,Read,ACK
5.6845012000,2223,0xD5,0x00,Read,ACK
5.6845316000,2223,0xD5,0x62,Read,ACK
5.6845620000,2223,0xD5,0xFF,Read,ACK
5.6845924000,2223,0xD5,0xB4,Read,ACK
5.6846226000,2223,0xD5,0xFF,Read,NAK
5.7038816000,2225,0xD4,0x1E,Write,ACK
5.7039462000,2226,0xD5,0x07,Read,NAK
5.7040128000,2228,0xD4,0x28,Write,ACK
5.7040776000,2229,0xD5,0xEC,Read,ACK
5.7041080000,2229,0xD5,0x00,Read,ACK
5.7041384000,2229,0xD5,0x5E,Read,ACK
5.7041686000,2229,0xD5,0xFF,Read,ACK
5.7041988000,2229,0xD5,0x88,Read,ACK
5.7042862000,2229,0xD5,0x40,Read,NAK
5.7043528000,2231,0xD4,0x20,Write,ACK
5.7044176000,2232,0xD5,0x93,Read,ACK
5.7044478000,2232,0xD5,0xFC,Read,ACK
5.7044782000,2232,0xD5,0x47,Read,ACK
5.7045086000,2232,0xD5,0x00,Read,ACK
5.7045390000,2232,0xD5,0x78,Read,ACK
5.7045692000,2232,0xD5,0xFF,Read,ACK
5.7045996000,2232,0xD5,0xB1,Read,ACK
5.7046298000,2232,0xD5,0xFF,Read,NAK
5.7238872000,2234,0xD4,0x1E,Write,ACK
5.7239520000,2235,0xD5,0x07,Read,NAK
5.7240186000,2237,0xD4,0x28,Write,ACK
5.7240834000,2238,0xD5,0xDE,Read,ACK
5.7241140000,2238,0xD5,0x00,Read,ACK
5.7241444000,2238,0xD5,0x5A,Read,ACK
5.7241748000,2238,0xD5,0xFF,Read,ACK
5.7242052000,2238,0xD5,0x88,Read,ACK
5.7242906000,2238,0xD5,0x40,Read,NAK
5.7243630000,2240,0xD4,0x20,Write,ACK
5.7244362000,2241,0xD5,0x8B,Read,ACK
5.7244668000,2241,0xD5,0xFC,Read,ACK
5.7244980000,2241,0xD5,0x53,Read,ACK
5.7245288000,2241,0xD5,0x00,Read,ACK
5.7245594000,2241,0xD5,0x64,Read,ACK
5.7245900000,2241,0xD5,0xFF,Read,ACK
5.7246208000,2241,0xD5,0xB5,Read,ACK
5.7246520000,2241,0xD5,0xFF,Read,NAK
5.7438972000,2243,0xD4,0x1E,Write,ACK
5.7439804000,2244,0xD5,0x07,Read,NAK
5.7440490000,2246,0xD4,0x28,Write,ACK
5.7441138000,2247,0xD5,0xE2,Read,ACK
5.7441442000,2247,0xD5,0x00,Read,ACK
5.7441748000,2247,0xD5,0x5F,Read,ACK
5.7442050000,2247,0xD5,0xFF,Read,ACK
5.7442354000,2247,0xD5,0x8C,Read,ACK
5.7442854000,2247,0xD5,0x40,Read,NAK
5.7443520000,2249,0xD4,0x20,Write,ACK
5.7444168000,2250,0xD5,0x91,Read,ACK
5.7444472000,2250,0xD5,0xFC,Read,ACK
5.7444776000,2250,0xD5,0x58,Read,ACK
5.7445080000,2250,0xD5,0x00,Read,ACK
5.7445384000,2250,0xD5,0x62,Read,ACK
5.7445688000,2250,0xD5,0xFF,Read,ACK
5.7445992000,2250,0xD5,0xB5,Read,ACK
5.7446296000,2250,0xD5,0xFF,Read,NAK
5.7639020000,2252,0xD4,0x1E,Write,ACK
5.7639726000,2253,0xD5,0x07,Read,NAK
5.7640410000,2255,0xD4,0x28,Write,ACK
5.7641058000,2256,0xD5,0xE4,Read,ACK
5.7641362000,2256,0xD5,0x00,Read,ACK
5.7641666000,2256,0xD5,0x5E,Read,ACK
5.7641970000,2256,0xD5,0xFF,Read,ACK
5.7642274000,2256,0xD5,0x91,Read,ACK
5.7642884000,2256,0xD5,0x40,Read,NAK
5.7643550000,2258,0xD4,0x20,Write,ACK
5.7644198000,2259,0xD5,0x98,Read,ACK
5.7644502000,2259,0xD5,0xFC,Read,ACK
5.7644806000,2259,0xD5,0x58,Read,ACK
5.7645110000,2259,0xD5,0x00,Read,ACK
5.7645414000,2259,0xD5,0x65,Read,ACK
5.7645718000,2259,0xD5,0xFF,Read,ACK
5.7646022000,2259,0xD5,0xB3,Read,ACK
5.7646326000,2259,0xD5,0xFF,Read,NAK
5.7839088000,2261,0xD4,0x1E,Write,ACK
5.7839764000,2262,0xD5,0x07,Read,NAK
5.7840428000,2264,0xD4,0x28,Write,ACK
5.7841076000,2265,0xD5,0xE4,Read,ACK
5.7841380000,2265,0xD5,0x00,Read,ACK
5.7841684000,2265,0xD5,0x5A,Read,ACK
5.7841988000,2265,0xD5,0xFF,Read,ACK
5.7842290000,2265,0xD5,0x91,Read,ACK
5.7842998000,2265,0xD5,0x40,Read,NAK
5.7843662000,2267,0xD4,0x20,Write,ACK
5.7844310000,2268,0xD5,0x98,Read,ACK
5.7844614000,2268,0xD5,0xFC,Read,ACK
5.7844916000,2268,0xD5,0x58,Read,ACK
5.7845220000,2268,0xD5,0x00,Read,ACK
5.7845524000,2268,0xD5,0x68,Read,ACK
5.7845828000,2268,0xD5,0xFF,Read,ACK
5.7846132000,2268,0xD5,0xAD,Read,ACK
5.7846434000,2268,0xD5,0xFF,Read,NAK
5.8039080000,2270,0xD4,0x1E,Write,ACK
5.8039726000,2271,0xD5,0x07,Read,NAK
5.8040390000,2273,0xD4,0x28,Write,ACK
5.8041038000,2274,0xD5,0xE3,Read,ACK
5.8041342000,2274,0xD5,0x00,Read,ACK
5.8041646000,2274,0xD5,0x5C,Read,ACK
5.8041950000,2274,0xD5,0xFF,Read,ACK
5.8042254000,2274,0xD5,0x8C,Read,ACK
5.8042954000,2274,0xD5,0x40,Read,NAK
5.8043618000,2276,0xD4,0x20,Write,ACK
5.8044266000,2277,0xD5,0x8B,Read,ACK
5.8044570000,2277,0xD5,0xFC,Read,ACK
5.8044874000,2277,0xD5,0x59,Read,ACK
5.8045176000,2277,0xD5,0x00,Read,ACK
5.8045482000,2277,0xD5,0x59,Read,ACK
5.8045786000,2277,0xD5,0xFF,Read,ACK
5.8046088000,2277,0xD5,0xAE,Read,ACK
5.8046392000,2277,0xD5,0xFF,Read,NAK
5.8239146000,2279,0xD4,0x1E,Write,ACK
5.8239822000,2280,0xD5,0x07,Read,NAK
5.8240486000,2282,0xD4,0x28,Write,ACK
5.8241136000,2283,0xD5,0xE0,Read,ACK
5.8241440000,2283,0xD5,0x00,Read,ACK
5.8241744000,2283,0xD5,0x5E,Read,ACK
5.8242048000,2283,0xD5,0xFF,Read,ACK
5.8242350000,2283,0xD5,0x88,Read,ACK
5.8243066000,2283,0xD5,0x40,Read,NAK
5.8243788000,2285,0xD4,0x20,Write,ACK
5.8244462000,2286,0xD5,0x96,Read,ACK
5.8244770000,2286,0xD5,0xFC,Read,ACK
5.8245076000,2286,0xD5,0x51,Read,ACK
5.8245384000,2286,0xD5,0x00,Read,ACK
5.8245690000,2286,0xD5,0x63,Read,ACK
5.8245996000,2286,0xD5,0xFF,Read,ACK
5.8246302000,2286,0xD5,0xB3,Read,ACK
5.8246606000,2286,0xD5,0xFF,Read,NAK
5.8439168000,2288,0xD4,0x1E,Write,ACK
5.8439946000,2289,0xD5,0x07,Read,NAK
5.8440612000,2291,0xD4,0x28,Write,ACK
5.8441270000,2292,0xD5,0xE4,Read,ACK
5.8441574000,2292,0xD5,0x00,Read,ACK
5.8441880000,2292,0xD5,0x5E,Read,ACK
5.8442182000,2292,0xD5,0xFF,Read,ACK
5.8442486000,2292,0xD5,0x8A,Read,ACK
5.8443136000,2292,0xD5,0x40,Read,NAK
5.8443802000,2294,0xD4,0x20,Write,ACK
5.8444450000,2295,0xD5,0xA7,Read,ACK
5.8444754000,2295,0xD5,0xFC,Read,ACK
5.8445058000,2295,0xD5,0x5E,Read,ACK
5.8445362000,2295,0xD5,0x00,Read,ACK
5.8445666000,2295,0xD5,0x61,Read,ACK
5.8445970000,2295,0xD5,0xFF,Read,ACK
5.8446274000,2295,0xD5,0xAF,Read,ACK
5.8446576000,2295,0xD5,0xFF,Read,NAK
5.8639344000,2297,0xD4,0x1E,Write,ACK
5.8640048000,2298,0xD5,0x07,Read,NAK
5.8640724000,2300,0xD4,0x28,Write,ACK
5.8641372000,2301,0xD5,0xE5,Read,ACK
5.8641676000,2301,0xD5,0x00,Read,ACK
5.8641982000,2301,0xD5,0x5C,Read,ACK
5.8642286000,2301,0xD5,0xFF,Read,ACK
5.8642588000,2301,0xD5,0x88,Read,ACK
5.8643182000,2301,0xD5,0x40,Read,NAK
5.8643848000,2303,0xD4,0x20,Write,ACK
5.8644496000,2304,0xD5,0x92,Read,ACK
5.8644800000,2304,0xD5,0xFC,Read,ACK
5.8645102000,2304,0xD5,0x53,Read,ACK
5.8645406000,2304,0xD5,0x00,Read,ACK
5.8645710000,2304,0xD5,0x61,Read,ACK
5.8646016000,2304,0xD5,0xFF,Read,ACK
5.8646320000,2304,0xD5,0xA7,Read,ACK
5.8646622000,2304,0xD5,0xFF,Read,NAK
5.8839292000,2306,0xD4,0x1E,Write,ACK
5.8839940000,2307,0xD5,0x07,Read,NAK
5.8840604000,2309,0xD4,0x28,Write,ACK
5.8841254000,2310,0xD5,0xDE,Read,ACK
5.8841558000,2310,0xD5,0x00,Read,ACK
5.8841862000,2310,0xD5,0x58,Read,ACK
5.8842166000,2310,0xD5,0xFF,Read,ACK
5.8842470000,2310,0xD5,0x8C,Read,ACK
5.8843262000,2310,0xD5,0x40,Read,NAK
5.8843928000,2312,0xD4,0x20,Write,ACK
5.8844576000,2313,0xD5,0x96,Read,ACK
5.8844880000,2313,0xD5,0xFC,Read,ACK
5.8845184000,2313,0xD5,0x47,Read,ACK
5.8845488000,2313,0xD5,0x00,Read,ACK
5.8845792000,2313,0xD5,0x77,Read,ACK
5.8846096000,2313,0xD5,0xFF,Read,ACK
5.8846400000,2313,0xD5,0xAB,Read,ACK
5.8846702000,2313,0xD5,0xFF,Read,NAK
5.9039344000,2315,0xD4,0x1E,Write,ACK
5.9039992000,2316,0xD5,0x07,Read,NAK
5.9040658000,2318,0xD4,0x28,Write,ACK
5.9041308000,2319,0xD5,0xD7,Read,ACK
5.9041612000,2319,0xD5,0x00,Read,ACK
5.9041916000,2319,0xD5,0x57,Read,ACK
5.9042220000,2319,0xD5,0xFF,Read,ACK
5.9042522000,2319,0xD5,0x8E,Read,ACK
5.9043262000,2319,0xD5,0x40,Read,NAK
5.9043928000,2321,0xD4,0x20,Write,ACK
5.9044576000,2322,0xD5,0x98,Read,ACK
5.9044880000,2322,0xD5,0xFC,Read,ACK
5.9045184000,2322,0xD5,0x5D,Read,ACK
5.9045488000,2322,0xD5,0x00,Read,ACK
5.9045794000,2322,0xD5,0x5B,Read,ACK
5.9046098000,2322,0xD5,0xFF,Read,ACK
5.9046400000,2322,0xD5,0xB4,Read,ACK
5.9046704000,2322,0xD5,0xFF,Read,NAK
5.9239428000,2324,0xD4,0x1E,Write,ACK
5.9240102000,2325,0xD5,0x07,Read,NAK
5.9240768000,2327,0xD4,0x28,Write,ACK
5.9241416000,2328,0xD5,0xD8,Read,ACK
5.9241720000,2328,0xD5,0x00,Read,ACK
5.9242026000,2328,0xD5,0x58,Read,ACK
5.9242330000,2328,0xD5,0xFF,Read,ACK
5.9242632000,2328,0xD5,0x90,Read,ACK
5.9243414000,2328,0xD5,0x40,Read,NAK
5.9244118000,2330,0xD4,0x20,Write,ACK
5.9244846000,2331,0xD5,0x8F,Read,ACK
5.9245156000,2331,0xD5,0xFC,Read,ACK
5.9245460000,2331,0xD5,0x5C,Read,ACK
5.9245766000,2331,0xD5,0x00,Read,ACK
5.9246080000,2331,0xD5,0x5F,Read,ACK
5.9246384000,2331,0xD5,0xFF,Read,ACK
5.9246690000,2331,0xD5,0xB7,Read,ACK
5.9246994000,2331,0xD5,0xFF,Read,NAK
5.9439430000,2333,0xD4,0x1E,Write,ACK
5.9440088000,2334,0xD5,0x07,Read,NAK
5.9440752000,2336,0xD4,0x28,Write,ACK
5.9441412000,2337,0xD5,0xE3,Read,ACK
5.9441716000,2337,0xD5,0x00,Read,ACK
5.9442022000,2337,0xD5,0x58,Read,ACK
5.9442326000,2337,0xD5,0xFF,Read,ACK
5.9442630000,2337,0xD5,0x8E,Read,ACK
5.9443368000,2337,0xD5,0x40,Read,NAK
5.9444034000,2339,0xD4,0x20,Write,ACK
5.9444682000,2340,0xD5,0x93,Read,ACK
5.9444986000,2340,0xD5,0xFC,Read,ACK
5.9445290000,2340,0xD5,0x5C,Read,ACK
5.9445594000,2340,0xD5,0x00,Read,ACK
5.9445898000,2340,0xD5,0x63,Read,ACK
5.9446202000,2340,0xD5,0xFF,Read,ACK
5.9446506000,2340,0xD5,0xB6,Read,ACK
5.9446810000,2340,0xD5,0xFF,Read,NAK
5.9639598000,2342,0xD4,0x1E,Write,ACK
5.9640302000,2343,0xD5,0x07,Read,NAK
5.9640978000,2345,0xD4,0x28,Write,ACK
5.9641626000,2346,0xD5,0xE0,Read,ACK
5.9641930000,2346,0xD5,0x00,Read,ACK
5.9642234000,2346,0xD5,0x5C,Read,ACK
5.9642538000,2346,0xD5,0xFF,Read,ACK
5.9642840000,2346,0xD5,0x82,Read,ACK
5.9643448000,2346,0xD5,0x40,Read,NAK
5.9644114000,2348,0xD4,0x20,Write,ACK
5.9644762000,2349,0xD5,0x8D,Read,ACK
5.9645066000,2349,0xD5,0xFC,Read,ACK
5.9645368000,2349,0xD5,0x5E,Read,ACK
5.9645672000,2349,0xD5,0x00,Read,ACK
5.9645978000,2349,0xD5,0x63,Read,ACK
5.9646282000,2349,0xD5,0xFF,Read,ACK
5.9646586000,2349,0xD5,0xB3,Read,ACK
5.9646888000,2349,0xD5,0xFF,Read,NAK
5.9839554000,2351,0xD4,0x1E,Write,ACK
5.9840202000,2352,0xD5,0x07,Read,NAK
5.9840866000,2354,0xD4,0x28,Write,ACK
5.9841514000,2355,0xD5,0xE2,Read,ACK
5.9841818000,2355,0xD5,0x00,Read,ACK
5.9842124000,2355,0xD5,0x5C,Read,ACK
5.9842428000,2355,0xD5,0xFF,Read,ACK
5.9842730000,2355,0xD5,0x86,Read,ACK
5.9843570000,2355,0xD5,0x40,Read,NAK
5.9844234000,2357,0xD4,0x20,Write,ACK
5.9844882000,2358,0xD5,0x98,Read,ACK
5.9845186000,2358,0xD5,0xFC,Read,ACK
5.9845490000,2358,0xD5,0x55,Read,ACK
5.9845796000,2358,0xD5,0x00,Read,ACK
5.9846100000,2358,0xD5,0x6F,Read,ACK
5.9846404000,2358,0xD5,0xFF,Read,ACK
5.9846708000,2358,0xD5,0xB2,Read,ACK
5.9847010000,2358,0xD5,0xFF,Read,NAK
6.0039656000,2360,0xD4,0x1E,Write,ACK
6.0040332000,2361,0xD5,0x07,Read,NAK
6.0040996000,2363,0xD4,0x28,Write,ACK
6.0041644000,2364,0xD5,0xE2,Read,ACK
6.0041948000,2364,0xD5,0x00,Read,ACK
6.0042252000,2364,0xD5,0x5F,Read,ACK
6.0042554000,2364,0xD5,0xFF,Read,ACK
6.0042856000,2364,0xD5,0x8E,Read,ACK
6.0043552000,2364,0xD5,0x40,Read,NAK
6.0044218000,2366,0xD4,0x20,Write,ACK
6.0044866000,2367,0xD5,0x96,Read,ACK
6.0045168000,2367,0xD5,0xFC,Read,ACK
6.0045472000,2367,0xD5,0x5E,Read,ACK
6.0045774000,2367,0xD5,0x00,Read,ACK
6.0046078000,2367,0xD5,0x5F,Read,ACK
6.0046382000,2367,0xD5,0xFF,Read,ACK
6.0046686000,2367,0xD5,0xB0,Read,ACK
6.0046990000,2367,0xD5,0xFF,Read,NAK
6.0239662000,2369,0xD4,0x1E,Write,ACK
6.0240310000,2370,0xD5,0x07,Read,NAK
6.0240974000,2372,0xD4,0x28,Write,ACK
6.0241624000,2373,0xD5,0xE0,Read,ACK
6.0241928000,2373,0xD5,0x00,Read,ACK
6.0242234000,2373,0xD5,0x62,Read,ACK
6.0242538000,2373,0xD5,0xFF,Read,ACK
6.0242840000,2373,0xD5,0x89,Read,ACK
6.0243646000,2373,0xD5,0x40,Read,NAK
6.0244330000,2375,0xD4,0x20,Write,ACK
6.0245008000,2376,0xD5,0x98,Read,ACK
6.0245312000,2376,0xD5,0xFC,Read,ACK
6.0245624000,2376,0xD5,0x5B,Read,ACK
6.0245930000,2376,0xD5,0x00,Read,ACK
6.0246244000,2376,0xD5,0x59,Read,ACK
6.0246550000,2376,0xD5,0xFF,Read,ACK
6.0246856000,2376,0xD5,0xB3,Read,ACK
6.0247162000,2376,0xD5,0xFF,Read,NAK
6.0439706000,2378,0xD4,0x1E,Write,ACK
6.0440404000,2379,0xD5,0x07,Read,NAK
6.0441078000,2381,0xD4,0x28,Write,ACK
6.0441728000,2382,0xD5,0xDF,Read,ACK
6.0442032000,2382,0xD5,0x00,Read,ACK
6.0442336000,2382,0xD5,0x5D,Read,ACK
6.0442640000,2382,0xD5,0xFF,Read,ACK
6.0442944000,2382,0xD5,0x8E,Read,ACK
6.0443668000,2382,0xD5,0x40,Read,NAK
6.0444334000,2384,0xD4,0x20,Write,ACK
6.0444984000,2385,0xD5,0x93,Read,ACK
6.0445288000,2385,0xD5,0xFC,Read,ACK
6.0445592000,2385,0xD5,0x4D,Read,ACK
6.0445896000,2385,0xD5,0x00,Read,ACK
6.0446200000,2385,0xD5,0x6D,Read,ACK
6.0446504000,2385,0xD5,0xFF,Read,ACK
6.0446806000,2385,0xD5,0xB6,Read,ACK
6.0447110000,2385,0xD5,0xFF,Read,NAK
6.0639862000,2387,0xD4,0x1E,Write,ACK
6.0640566000,2388,0xD5,0x07,Read,NAK
6.0641240000,2390,0xD4,0x28,Write,ACK
6.0641890000,2391,0xD5,0xE2,Read,ACK
6.0642192000,2391,0xD5,0x00,Read,ACK
6.0642498000,2391,0xD5,0x5A,Read,ACK
6.0642802000,2391,0xD5,0xFF,Read,ACK
6.0643104000,2391,0xD5,0x8C,Read,ACK
6.0643722000,2391,0xD5,0x40,Read,NAK
6.0644388000,2393,0xD4,0x20,Write,ACK
6.0645036000,2394,0xD5,0xA1,Read,ACK
6.0645340000,2394,0xD5,0xFC,Read,ACK
6.0645644000,2394,0xD5,0x57,Read,ACK
6.0645948000,2394,0xD5,0x00,Read,ACK
6.0646252000,2394,0xD5,0x59,Read,ACK
6.0646558000,2394,0xD5,0xFF,Read,ACK
6.0646860000,2394,0xD5,0xB4,Read,ACK
6.0647164000,2394,0xD5,0xFF,Read,NAK
6.0839818000,2396,0xD4,0x1E,Write,ACK
6.0840466000,2397,0xD5,0x07,Read,NAK
6.0841132000,2399,0xD4,0x28,Write,ACK
6.0841780000,2400,0xD5,0xE2,Read,ACK
6.0842084000,2400,0xD5,0x00,Read,ACK
6.0842388000,2400,0xD5,0x5A,Read,ACK
6.0842692000,2400,0xD5,0xFF,Read,ACK
6.0842996000,2400,0xD5,0x8C,Read,ACK
6.0843742000,2400,0xD5,0x40,Read,NAK
6.0844408000,2402,0xD4,0x20,Write,ACK
6.0845056000,2403,0xD5,0x9C,Read,ACK
6.0845360000,2403,0xD5,0xFC,Read,ACK
6.0845664000,2403,0xD5,0x49,Read,ACK
6.0845970000,2403,0xD5,0x00,Read,ACK
6.0846274000,2403,0xD5,0x67,Read,ACK
6.0846578000,2403,0xD5,0xFF,Read,ACK
6.0846882000,2403,0xD5,0xB5,Read,ACK
6.0847184000,2403,0xD5,0xFF,Read,NAK
6.1039900000,2405,0xD4,0x1E,Write,ACK
6.1040576000,2406,0xD5,0x07,Read,NAK
6.1041240000,2408,0xD4,0x28,Write,ACK
6.1041888000,2409,0xD5,0xE0,Read,ACK
6.1042192000,2409,0xD5,0x00,Read,ACK
6.1042496000,2409,0xD5,0x5A,Read,ACK
6.1042800000,2409,0xD5,0xFF,Read,ACK
6.1043102000,2409,0xD5,0x90,Read,ACK
6.1043828000,2409,0xD5,0x40,Read,NAK
6.1044492000,2411,0xD4,0x20,Write,ACK
6.1045140000,2412,0xD5,0x92,Read,ACK
6.1045444000,2412,0xD5,0xFC,Read,ACK
6.1045746000,2412,0xD5,0x4D,Read,ACK
6.1046050000,2412,0xD5,0x00,Read,ACK
6.1046356000,2412,0xD5,0x67,Read,ACK
6.1046660000,2412,0xD5,0xFF,Read,ACK
6.1046962000,2412,0xD5,0xB3,Read,ACK
6.1047266000,2412,0xD5,0xFF,Read,NAK
6.1239926000,2414,0xD4,0x1E,Write,ACK
6.1240574000,2415,0xD5,0x07,Read,NAK
6.1241240000,2417,0xD4,0x28,Write,ACK
6.1241888000,2418,0xD5,0xE1,Read,ACK
6.1242192000,2418,0xD5,0x00,Read,ACK
6.1242498000,2418,0xD5,0x5D,Read,ACK
6.1242800000,2418,0xD5,0xFF,Read,ACK
6.1243102000,2418,0xD5,0x8E,Read,ACK
6.1243870000,2418,0xD5,0x40,Read,NAK
6.1244574000,2420,0xD4,0x20,Write,ACK
6.1245300000,2421,0xD5,0x96,Read,ACK
6.1245606000,2421,0xD5,0xFC,Read,ACK
6.1245912000,2421,0xD5,0x50,Read,ACK
6.1246218000,2421,0xD5,0x00,Read,ACK
6.1246526000,2421,0xD5,0x61,Read,ACK
6.1246832000,2421,0xD5,0xFF,Read,ACK
6.1247138000,2421,0xD5,0xAF,Read,ACK
6.1247444000,2421,0xD5,0xFF,Read,NAK
6.1439966000,2423,0xD4,0x1E,Write,ACK
6.1440644000,2424,0xD5,0x07,Read,NAK
6.1441318000,2426,0xD4,0x28,Write,ACK
6.1441968000,2427,0xD5,0xE0,Read,ACK
6.1442272000,2427,0xD5,0x00,Read,ACK
6.1442576000,2427,0xD5,0x5E,Read,ACK
6.1442880000,2427,0xD5,0xFF,Read,ACK
6.1443184000,2427,0xD5,0x8B,Read,ACK
6.1443988000,2427,0xD5,0x40,Read,NAK
6.1444654000,2429,0xD4,0x20,Write,ACK
6.1445302000,2430,0xD5,0x93,Read,ACK
6.1445606000,2430,0xD5,0xFC,Read,ACK
6.1445910000,2430,0xD5,0x4A,Read,ACK
6.1446214000,2430,0xD5,0x00,Read,ACK
6.1446518000,2430,0xD5,0x59,Read,ACK
6.1446822000,2430,0xD5,0xFF,Read,ACK
6.1447124000,2430,0xD5,0xAD,Read,ACK
6.1447428000,2430,0xD5,0xFF,Read,NAK
6.1640136000,2432,0xD4,0x1E,Write,ACK
6.1640840000,2433,0xD5,0x07,Read,NAK
6.1641514000,2435,0xD4,0x28,Write,ACK
6.1642164000,2436,0xD5,0xDE,Read,ACK
6.1642466000,2436,0xD5,0x00,Read,ACK
6.1642772000,2436,0xD5,0x5C,Read,ACK
6.1643076000,2436,0xD5,0xFF,Read,ACK
6.1643378000,2436,0xD5,0x8B,Read,ACK
6.1643984000,2436,0xD5,0x40,Read,NAK
6.1644650000,2438,0xD4,0x20,Write,ACK
6.1645298000,2439,0xD5,0x89,Read,ACK
6.1645604000,2439,0xD5,0xFC,Read,ACK
6.1645906000,2439,0xD5,0x4E,Read,ACK
6.1646212000,2439,0xD5,0x00,Read,ACK
6.1646516000,2439,0xD5,0x63,Read,ACK
6.1646820000,2439,0xD5,0xFF,Read,ACK
6.1647124000,2439,0xD5,0xAF,Read,ACK
6.1647428000,2439,0xD5,0xFF,Read,NAK
6.1840130000,2441,0xD4,0x1E,Write,ACK
6.1840804000,2442,0xD5,0x07,Read,NAK
6.1841470000,2444,0xD4,0x28,Write,ACK
6.1842120000,2445,0xD5,0xDE,Read,ACK
6.1842424000,2445,0xD5,0x00,Read,ACK
6.1842728000,2445,0xD5,0x5E,Read,ACK
6.1843030000,2445,0xD5,0xFF,Read,ACK
6.1843334000,2445,0xD5,0x90,Read,ACK
6.1844038000,2445,0xD5,0x40,Read,NAK
6.1844704000,2447,0xD4,0x20,Write,ACK
6.1845352000,2448,0xD5,0x93,Read,ACK
6.1845654000,2448,0xD5,0xFC,Read,ACK
6.1845958000,2448,0xD5,0x47,Read,ACK
6.1846262000,2448,0xD5,0x00,Read,ACK
6.1846566000,2448,0xD5,0x62,Read,ACK
6.1846870000,2448,0xD5,0xFF,Read,ACK
6.1847170000,2448,0xD5,0xB1,Read,ACK
6.1847474000,2448,0xD5,0xFF,Read,NAK
6.2040134000,2450,0xD4,0x1E,Write,ACK
6.2040782000,2451,0xD5,0x07,Read,NAK
6.2041446000,2453,0xD4,0x28,Write,ACK
6.2042092000,2454,0xD5,0xDE,Read,ACK
6.2042396000,2454,0xD5,0x00,Read,ACK
6.2042700000,2454,0xD5,0x5F,Read,ACK
6.2043004000,2454,0xD5,0xFF,Read,ACK
6.2043306000,2454,0xD5,0x8F,Read,ACK
6.2044048000,2454,0xD5,0x40,Read,NAK
6.2044712000,2456,0xD4,0x20,Write,ACK
6.2045360000,2457,0xD5,0x96,Read,ACK
6.2045664000,2457,0xD5,0xFC,Read,ACK
6.2045966000,2457,0xD5,0x4E,Read,ACK
6.2046270000,2457,0xD5,0x00,Read,ACK
6.2046574000,2457,0xD5,0x63,Read,ACK
6.2046878000,2457,0xD5,0xFF,Read,ACK
6.2047182000,2457,0xD5,0xA7,Read,ACK
6.2047484000,2457,0xD5,0xFF,Read,NAK
6.2240236000,2459,0xD4,0x1E,Write,ACK
6.2240912000,2460,0xD5,0x07,Read,NAK
6.2241578000,2462,0xD4,0x28,Write,ACK
6.2242226000,2463,0xD5,0xE2,Read,ACK
6.2242530000,2463,0xD5,0x00,Read,ACK
6.2242834000,2463,0xD5,0x5E,Read,ACK
6.2243138000,2463,0xD5,0xFF,Read,ACK
6.2243442000,2463,0xD5,0x8A,Read,ACK
6.2244170000,2463,0xD5,0x40,Read,NAK
6.2244866000,2465,0xD4,0x20,Write,ACK
6.2245592000,2466,0xD5,0x9C,Read,ACK
6.2245898000,2466,0xD5,0xFC,Read,ACK
6.2246206000,2466,0xD5,0x4C,Read,ACK
6.2246512000,2466,0xD5,0x00,Read,ACK
6.2246822000,2466,0xD5,0x67,Read,ACK
6.2247126000,2466,0xD5,0xFF,Read,ACK
6.2247432000,2466,0xD5,0xAA,Read,ACK
6.2247816000,2466,0xD5,0xFF,Read,NAK
6.2440214000,2468,0xD4,0x1E,Write,ACK
6.2440872000,2469,0xD5,0x07,Read,NAK
6.2441536000,2471,0xD4,0x28,Write,ACK
6.2442196000,2472,0xD5,0xE6,Read,ACK
6.2442500000,2472,0xD5,0x00,Read,ACK
6.2442804000,2472,0xD5,0x5D,Read,ACK
6.2443108000,2472,0xD5,0xFF,Read,ACK
6.2443412000,2472,0xD5,0x93,Read,ACK
6.2444156000,2472,0xD5,0x40,Read,NAK
6.2444822000,2474,0xD4,0x20,Write,ACK
6.2445470000,2475,0xD5,0x93,Read,ACK
6.2445774000,2475,0xD5,0xFC,Read,ACK
6.2446078000,2475,0xD5,0x4F,Read,ACK
6.2446382000,2475,0xD5,0x00,Read,ACK
6.2446686000,2475,0xD5,0x60,Read,ACK
6.2446990000,2475,0xD5,0xFF,Read,ACK
6.2447294000,2475,0xD5,0xB1,Read,ACK
6.2447598000,2475,0xD5,0xFF,Read,NAK
6.2640390000,2477,0xD4,0x1E,Write,ACK
6.2641094000,2478,0xD5,0x07,Read,NAK
6.2641768000,2480,0xD4,0x28,Write,ACK
6.2642416000,2481,0xD5,0xE9,Read,ACK
6.2642720000,2481,0xD5,0x00,Read,ACK
6.2643024000,2481,0xD5,0x5C,Read,ACK
6.2643328000,2481,0xD5,0xFF,Read,ACK
6.2643632000,2481,0xD5,0x90,Read,ACK
6.2644250000,2481,0xD5,0x40,Read,NAK
6.2644916000,2483,0xD4,0x20,Write,ACK
6.2645564000,2484,0xD5,0x93,Read,ACK
6.2645868000,2484,0xD5,0xFC,Read,ACK
6.2646172000,2484,0xD5,0x52,Read,ACK
6.2646476000,2484,0xD5,0x00,Read,ACK
6.2646780000,2484,0xD5,0x60,Read,ACK
6.2647084000,2484,0xD5,0xFF,Read,ACK
6.2647388000,2484,0xD5,0xB6,Read,ACK
6.2647692000,2484,0xD5,0xFF,Read,NAK
6.2840374000,2486,0xD4,0x1E,Write,ACK
6.2841048000,2487,0xD5,0x07,Read,NAK
6.2841714000,2489,0xD4,0x28,Write,ACK
6.2842362000,2490,0xD5,0xE6,Read,ACK
6.2842666000,2490,0xD5,0x00,Read,ACK
6.2842970000,2490,0xD5,0x5D,Read,ACK
6.2843272000,2490,0xD5,0xFF,Read,ACK
6.2843576000,2490,0xD5,0x88,Read,ACK
6.2844304000,2490,0xD5,0x40,Read,NAK
6.2844968000,2492,0xD4,0x20,Write,ACK
6.2845616000,2493,0xD5,0x9C,Read,ACK
6.2845918000,2493,0xD5,0xFC,Read,ACK
6.2846220000,2493,0xD5,0x58,Read,ACK
6.2846524000,2493,0xD5,0x00,Read,ACK
6.2846828000,2493,0xD5,0x59,Read,ACK
6.2847132000,2493,0xD5,0xFF,Read,ACK
6.2847434000,2493,0xD5,0xB8,Read,ACK
6.2847738000,2493,0xD5,0xFF,Read,NAK
6.3040398000,2495,0xD4,0x1E,Write,ACK
6.3041044000,2496,0xD5,0x07,Read,NAK
6.3041708000,2498,0xD4,0x28,Write,ACK
6.3042356000,2499,0xD5,0xE2,Read,ACK
6.3042660000,2499,0xD5,0x00,Read,ACK
6.3042964000,2499,0xD5,0x5E,Read,ACK
6.3043268000,2499,0xD5,0xFF,Read,ACK
6.3043572000,2499,0xD5,0x8A,Read,ACK
6.3044356000,2499,0xD5,0x40,Read,NAK
6.3045022000,2501,0xD4,0x20,Write,ACK
6.3045670000,2502,0xD5,0x9A,Read,ACK
6.3045974000,2502,0xD5,0xFC,Read,ACK
6.3046276000,2502,0xD5,0x4D,Read,ACK
6.3046580000,2502,0xD5,0x00,Read,ACK
6.3046884000,2502,0xD5,0x62,Read,ACK
6.3047188000,2502,0xD5,0xFF,Read,ACK
6.3047490000,2502,0xD5,0xAD,Read,ACK
6.3047794000,2502,0xD5,0xFF,Read,NAK
6.3240482000,2504,0xD4,0x1E,Write,ACK
6.3241158000,2505,0xD5,0x07,Read,NAK
6.3241824000,2507,0xD4,0x28,Write,ACK
6.3242472000,2508,0xD5,0xE4,Read,ACK
6.3242776000,2508,0xD5,0x00,Read,ACK
6.3243080000,2508,0xD5,0x5E,Read,ACK
6.3243386000,2508,0xD5,0xFF,Read,ACK
6.3243688000,2508,0xD5,0x8A,Read,ACK
6.3244434000,2508,0xD5,0x40,Read,NAK
6.3245138000,2510,0xD4,0x20,Write,ACK
6.3245856000,2511,0xD5,0x96,Read,ACK
6.3246162000,2511,0xD5,0xFC,Read,ACK
6.3246474000,2511,0xD5,0x57,Read,ACK
6.3246780000,2511,0xD5,0x00,Read,ACK
6.3247090000,2511,0xD5,0x5D,Read,ACK
6.3247396000,2511,0xD5,0xFF,Read,ACK
6.3247702000,2511,0xD5,0xAC,Read,ACK
6.3248092000,2511,0xD5,0xFF,Read,NAK
6.3440484000,2513,0xD4,0x1E,Write,ACK
6.3441142000,2514,0xD5,0x07,Read,NAK
6.3441806000,2516,0xD4,0x28,Write,ACK
6.3442466000,2517,0xD5,0xE7,Read,ACK
6.3442768000,2517,0xD5,0x00,Read,ACK
6.3443074000,2517,0xD5,0x5E,Read,ACK
6.3443376000,2517,0xD5,0xFF,Read,ACK
6.3443680000,2517,0xD5,0x8A,Read,ACK
6.3444428000,2517,0xD5,0x40,Read,NAK
6.3445092000,2519,0xD4,0x20,Write,ACK
6.3445740000,2520,0xD5,0x9A,Read,ACK
6.3446046000,2520,0xD5,0xFC,Read,ACK
6.3446350000,2520,0xD5,0x62,Read,ACK
6.3446654000,2520,0xD5,0x00,Read,ACK
6.3446958000,2520,0xD5,0x54,Read,ACK
6.3447264000,2520,0xD5,0xFF,Read,ACK
6.3447566000,2520,0xD5,0xAC,Read,ACK
6.3447870000,2520,0xD5,0xFF,Read,NAK
6.3640672000,2522,0xD4,0x1E,Write,ACK
6.3641378000,2523,0xD5,0x07,Read,NAK
6.3642052000,2525,0xD4,0x28,Write,ACK
6.3642700000,2526,0xD5,0xE6,Read,ACK
6.3643004000,2526,0xD5,0x00,Read,ACK
6.3643308000,2526,0xD5,0x5C,Read,ACK
6.3643612000,2526,0xD5,0xFF,Read,ACK
6.3643914000,2526,0xD5,0x89,Read,ACK
6.3644560000,2526,0xD5,0x40,Read,NAK
6.3645226000,2528,0xD4,0x20,Write,ACK
6.3645874000,2529,0xD5,0x9D,Read,ACK
6.3646178000,2529,0xD5,0xFC,Read,ACK
6.3646480000,2529,0xD5,0x5E,Read,ACK
6.3646784000,2529,0xD5,0x00,Read,ACK
6.3647088000,2529,0xD5,0x5C,Read,ACK
6.3647394000,2529,0xD5,0xFF,Read,ACK
6.3647696000,2529,0xD5,0xAB,Read,ACK
6.3648000000,2529,0xD5,0xFF,Read,NAK
6.3840610000,2531,0xD4,0x1E,Write,ACK
6.3841258000,2532,0xD5,0x07,Read,NAK
6.3841922000,2534,0xD4,0x28,Write,ACK
6.3842570000,2535,0xD5,0xE4,Read,ACK
6.3842874000,2535,0xD5,0x00,Read,ACK
6.3843180000,2535,0xD5,0x5B,Read,ACK
6.3843484000,2535,0xD5,0xFF,Read,ACK
6.3843786000,2535,0xD5,0x88,Read,ACK
6.3844534000,2535,0xD5,0x40,Read,NAK
6.3845200000,2537,0xD4,0x20,Write,ACK
6.3845848000,2538,0xD5,0x97,Read,ACK
6.3846150000,2538,0xD5,0xFC,Read,ACK
6.3846456000,2538,0xD5,0x5D,Read,ACK
6.3846760000,2538,0xD5,0x00,Read,ACK
6.3847064000,2538,0xD5,0x65,Read,ACK
6.3847370000,2538,0xD5,0xFF,Read,ACK
6.3847674000,2538,0xD5,0xB1,Read,ACK
6.3847976000,2538,0xD5,0xFF,Read,NAK
6.4040710000,2540,0xD4,0x1E,Write,ACK
6.4041386000,2541,0xD5,0x07,Read,NAK
6.4042050000,2543,0xD4,0x28,Write,ACK
6.4042698000,2544,0xD5,0xE2,Read,ACK
6.4043000000,2544,0xD5,0x00,Read,ACK
6.4043306000,2544,0xD5,0x5A,Read,ACK
6.4043608000,2544,0xD5,0xFF,Read,ACK
6.4043910000,2544,0xD5,0x92,Read,ACK
6.4044624000,2544,0xD5,0x40,Read,NAK
6.4045288000,2546,0xD4,0x20,Write,ACK
6.4045936000,2547,0xD5,0x98,Read,ACK
6.4046240000,2547,0xD5,0xFC,Read,ACK
6.4046542000,2547,0xD5,0x52,Read,ACK
6.4046846000,2547,0xD5,0x00,Read,ACK
6.4047150000,2547,0xD5,0x69,Read,ACK
6.4047454000,2547,0xD5,0xFF,Read,ACK
6.4047758000,2547,0xD5,0xB5,Read,ACK
6.4048062000,2547,0xD5,0xFF,Read,NAK
6.4240716000,2549,0xD4,0x1E,Write,ACK
6.4241364000,2550,0xD5,0x07,Read,NAK
6.4242028000,2552,0xD4,0x28,Write,ACK
6.4242678000,2553,0xD5,0xDE,Read,ACK
6.4242982000,2553,0xD5,0x00,Read,ACK
6.4243286000,2553,0xD5,0x5B,Read,ACK
6.4243590000,2553,0xD5,0xFF,Read,ACK
6.4243894000,2553,0xD5,0x95,Read,ACK
6.4244666000,2553,0xD5,0x40,Read,NAK
6.4245352000,2555,0xD4,0x20,Write,ACK
6.4246028000,2556,0xD5,0x98,Read,ACK
6.4246334000,2556,0xD5,0xFC,Read,ACK
6.4246640000,2556,0xD5,0x52,Read,ACK
6.4246946000,2556,0xD5,0x00,Read,ACK
6.4247252000,2556,0xD5,0x5F,Read,ACK
6.4247560000,2556,0xD5,0xFF,Read,ACK
6.4247864000,2556,0xD5,0xB1,Read,ACK
6.4248172000,2556,0xD5,0xFF,Read,NAK
6.4440742000,2558,0xD4,0x1E,Write,ACK
6.4441400000,2559,0xD5,0x07,Read,NAK
6.4442064000,2561,0xD4,0x28,Write,ACK
6.4442722000,2562,0xD5,0xDC,Read,ACK
6.4443026000,2562,0xD5,0x00,Read,ACK
6.4443332000,2562,0xD5,0x5A,Read,ACK
6.4443634000,2562,0xD5,0xFF,Read,ACK
6.4443936000,2562,0xD5,0x88,Read,ACK
6.4444682000,2562,0xD5,0x40,Read,NAK
6.4445348000,2564,0xD4,0x20,Write,ACK
6.4445996000,2565,0xD5,0x9D,Read,ACK
6.4446300000,2565,0xD5,0xFC,Read,ACK
6.4446604000,2565,0xD5,0x56,Read,ACK
6.4446908000,2565,0xD5,0x00,Read,ACK
6.4447212000,2565,0xD5,0x61,Read,ACK
6.4447516000,2565,0xD5,0xFF,Read,ACK
6.4447820000,2565,0xD5,0xA9,Read,ACK
6.4448124000,2565,0xD5,0xFF,Read,NAK
6.4640906000,2567,0xD4,0x1E,Write,ACK
6.4641612000,2568,0xD5,0x07,Read,NAK
6.4642286000,2570,0xD4,0x28,Write,ACK
6.4642934000,2571,0xD5,0xDA,Read,ACK
6.4643238000,2571,0xD5,0x00,Read,ACK
6.4643542000,2571,0xD5,0x5A,Read,ACK
6.4643846000,2571,0xD5,0xFF,Read,ACK
6.4644150000,2571,0xD5,0x87,Read,ACK
6.4644776000,2571,0xD5,0x40,Read,NAK
6.4645442000,2573,0xD4,0x20,Write,ACK
6.4646090000,2574,0xD5,0x94,Read,ACK
6.4646394000,2574,0xD5,0xFC,Read,ACK
6.4646698000,2574,0xD5,0x57,Read,ACK
6.4647002000,2574,0xD5,0x00,Read,ACK
6.4647306000,2574,0xD5,0x5D,Read,ACK
6.4647610000,2574,0xD5,0xFF,Read,ACK
6.4647914000,2574,0xD5,0xA7,Read,ACK
6.4648218000,2574,0xD5,0xFF,Read,NAK
6.4840872000,2576,0xD4,0x1E,Write,ACK
6.4841520000,2577,0xD5,0x07,Read,NAK
6.4842184000,2579,0xD4,0x28,Write,ACK
6.4842834000,2580,0xD5,0xDA,Read,ACK
6.4843138000,2580,0xD5,0x00,Read,ACK
6.4843444000,2580,0xD5,0x57,Read,ACK
6.4843746000,2580,0xD5,0xFF,Read,ACK
6.4844048000,2580,0xD5,0x89,Read,ACK
6.4844788000,2580,0xD5,0x40,Read,NAK
6.4845454000,2582,0xD4,0x20,Write,ACK
6.4846102000,2583,0xD5,0x9C,Read,ACK
6.4846406000,2583,0xD5,0xFC,Read,ACK
6.4846710000,2583,0xD5,0x63,Read,ACK
6.4847014000,2583,0xD5,0x00,Read,ACK
6.4847318000,2583,0xD5,0x5E,Read,ACK
6.4847622000,2583,0xD5,0xFF,Read,ACK
6.4847924000,2583,0xD5,0xAB,Read,ACK
6.4848228000,2583,0xD5,0xFF,Read,NAK
6.5040954000,2585,0xD4,0x1E,Write,ACK
6.5041628000,2586,0xD5,0x07,Read,NAK
6.5042294000,2588,0xD4,0x28,Write,ACK
6.5042942000,2589,0xD5,0xDC,Read,ACK
6.5043244000,2589,0xD5,0x00,Read,ACK
6.5043548000,2589,0xD5,0x58,Read,ACK
6.5043852000,2589,0xD5,0xFF,Read,ACK
6.5044154000,2589,0xD5,0x8A,Read,ACK
6.5044880000,2589,0xD5,0x40,Read,NAK
6.5045544000,2591,0xD4,0x20,Write,ACK
6.5046192000,2592,0xD5,0x9C,Read,ACK
6.5046496000,2592,0xD5,0xFC,Read,ACK
6.5046798000,2592,0xD5,0x63,Read,ACK
6.5047102000,2592,0xD5,0x00,Read,ACK
6.5047406000,2592,0xD5,0x60,Read,ACK
6.5047710000,2592,0xD5,0xFF,Read,ACK
6.5048012000,2592,0xD5,0xAD,Read,ACK
6.5048316000,2592,0xD5,0xFF,Read,NAK
6.5240980000,2594,0xD4,0x1E,Write,ACK
6.5241628000,2595,0xD5,0x07,Read,NAK
6.5242292000,2597,0xD4,0x28,Write,ACK
6.5242942000,2598,0xD5,0xDD,Read,ACK
6.5243244000,2598,0xD5,0x00,Read,ACK
6.5243550000,2598,0xD5,0x5B,Read,ACK
6.5243854000,2598,0xD5,0xFF,Read,ACK
6.5244158000,2598,0xD5,0x90,Read,ACK
6.5244964000,2598,0xD5,0x40,Read,NAK
6.5245658000,2600,0xD4,0x20,Write,ACK
6.5246330000,2601,0xD5,0x8F,Read,ACK
6.5246638000,2601,0xD5,0xFC,Read,ACK
6.5246944000,2601,0xD5,0x5F,Read,ACK
6.5247250000,2601,0xD5,0x00,Read,ACK
6.5247564000,2601,0xD5,0x6D,Read,ACK
6.5247870000,2601,0xD5,0xFF,Read,ACK
6.5248176000,2601,0xD5,0xB1,Read,ACK
6.5248482000,2601,0xD5,0xFF,Read,NAK
6.5441024000,2603,0xD4,0x1E,Write,ACK
6.5441712000,2604,0xD5,0x07,Read,NAK
6.5442388000,2606,0xD4,0x28,Write,ACK
6.5443036000,2607,0xD5,0xDE,Read,ACK
6.5443338000,2607,0xD5,0x00,Read,ACK
6.5443644000,2607,0xD5,0x5A,Read,ACK
6.5443948000,2607,0xD5,0xFF,Read,ACK
6.5444252000,2607,0xD5,0x90,Read,ACK
6.5444994000,2607,0xD5,0x40,Read,NAK
6.5445660000,2609,0xD4,0x20,Write,ACK
6.5446308000,2610,0xD5,0xA1,Read,ACK
6.5446612000,2610,0xD5,0xFC,Read,ACK
6.5446916000,2610,0xD5,0x5A,Read,ACK
6.5447220000,2610,0xD5,0x00,Read,ACK
6.5447524000,2610,0xD5,0x63,Read,ACK
6.5447828000,2610,0xD5,0xFF,Read,ACK
6.5448132000,2610,0xD5,0xB5,Read,ACK
6.5448436000,2610,0xD5,0xFF,Read,NAK
6.5641210000,2612,0xD4,0x1E,Write,ACK
6.5641914000,2613,0xD5,0x07,Read,NAK
6.5642588000,2615,0xD4,0x28,Write,ACK
6.5643236000,2616,0xD5,0xE1,Read,ACK
6.5643542000,2616,0xD5,0x00,Read,ACK
6.5643846000,2616,0xD5,0x5C,Read,ACK
6.5644150000,2616,0xD5,0xFF,Read,ACK
6.5644452000,2616,0xD5,0x88,Read,ACK
6.5645046000,2616,0xD5,0x40,Read,NAK
6.5645712000,2618,0xD4,0x20,Write,ACK
6.5646360000,2619,0xD5,0xA6,Read,ACK
6.5646664000,2619,0xD5,0xFC,Read,ACK
6.5646968000,2619,0xD5,0x59,Read,ACK
6.5647270000,2619,0xD5,0x00,Read,ACK
6.5647576000,2619,0xD5,0x5E,Read,ACK
6.5647880000,2619,0xD5,0xFF,Read,ACK
6.5648182000,2619,0xD5,0xB9,Read,ACK
6.5648488000,2619,0xD5,0xFF,Read,NAK
6.5841212000,2621,0xD4,0x1E,Write,ACK
6.5841888000,2622,0xD5,0x07,Read,NAK
6.5842552000,2624,0xD4,0x28,Write,ACK
6.5843200000,2625,0xD5,0xE5,Read,ACK
6.5843504000,2625,0xD5,0x00,Read,ACK
6.5843808000,2625,0xD5,0x5F,Read,ACK
6.5844110000,2625,0xD5,0xFF,Read,ACK
6.5844414000,2625,0xD5,0x88,Read,ACK
6.5845100000,2625,0xD5,0x40,Read,NAK
6.5845766000,2627,0xD4,0x20,Write,ACK
6.5846414000,2628,0xD5,0x9C,Read,ACK
6.5846718000,2628,0xD5,0xFC,Read,ACK
6.5847022000,2628,0xD5,0x4F,Read,ACK
6.5847324000,2628,0xD5,0x00,Read,ACK
6.5847630000,2628,0xD5,0x69,Read,ACK
6.5847932000,2628,0xD5,0xFF,Read,ACK
6.5848236000,2628,0xD5,0xB3,Read,ACK
6.5848538000,2628,0xD5,0xFF,Read,NAK
6.6041216000,2630,0xD4,0x1E,Write,ACK
6.6041862000,2631,0xD5,0x07,Read,NAK
6.6042526000,2633,0xD4,0x28,Write,ACK
6.6043176000,2634,0xD5,0xE6,Read,ACK
6.6043478000,2634,0xD5,0x00,Read,ACK
6.6043782000,2634,0xD5,0x5C,Read,ACK
6.6044086000,2634,0xD5,0xFF,Read,ACK
6.6044390000,2634,0xD5,0x8E,Read,ACK
6.6045132000,2634,0xD5,0x40,Read,NAK
6.6045798000,2636,0xD4,0x20,Write,ACK
6.6046446000,2637,0xD5,0x9B,Read,ACK
6.6046748000,2637,0xD5,0xFC,Read,ACK
6.6047052000,2637,0xD5,0x58,Read,ACK
6.6047356000,2637,0xD5,0x00,Read,ACK
6.6047662000,2637,0xD5,0x65,Read,ACK
6.6047964000,2637,0xD5,0xFF,Read,ACK
6.6048268000,2637,0xD5,0xAA,Read,ACK
6.6048572000,2637,0xD5,0xFF,Read,NAK
6.6241272000,2639,0xD4,0x1E,Write,ACK
6.6241920000,2640,0xD5,0x07,Read,NAK
6.6242584000,2642,0xD4,0x28,Write,ACK
6.6243232000,2643,0xD5,0xE4,Read,ACK
6.6243536000,2643,0xD5,0x00,Read,ACK
6.6243840000,2643,0xD5,0x5B,Read,ACK
6.6244144000,2643,0xD5,0xFF,Read,ACK
6.6244448000,2643,0xD5,0x86,Read,ACK
6.6245218000,2643,0xD5,0x40,Read,NAK
6.6245904000,2645,0xD4,0x20,Write,ACK
6.6246578000,2646,0xD5,0xA5,Read,ACK
6.6246894000,2646,0xD5,0xFC,Read,ACK
6.6247200000,2646,0xD5,0x54,Read,ACK
6.6247506000,2646,0xD5,0x00,Read,ACK
6.6247814000,2646,0xD5,0x61,Read,ACK
6.6248126000,2646,0xD5,0xFF,Read,ACK
6.6248432000,2646,0xD5,0xAE,Read,ACK
6.6248746000,2646,0xD5,0xFF,Read,NAK
6.6441312000,2648,0xD4,0x1E,Write,ACK
6.6441988000,2649,0xD5,0x07,Read,NAK
6.6442664000,2651,0xD4,0x28,Write,ACK
6.6443314000,2652,0xD5,0xE2,Read,ACK
6.6443618000,2652,0xD5,0x00,Read,ACK
6.6443922000,2652,0xD5,0x5D,Read,ACK
6.6444226000,2652,0xD5,0xFF,Read,ACK
6.6444530000,2652,0xD5,0x8C,Read,ACK
6.6445258000,2652,0xD5,0x40,Read,NAK
6.6445922000,2654,0xD4,0x20,Write,ACK
6.6446572000,2655,0xD5,0xA0,Read,ACK
6.6446876000,2655,0xD5,0xFC,Read,ACK
6.6447180000,2655,0xD5,0x55,Read,ACK
6.6447482000,2655,0xD5,0x00,Read,ACK
6.6447788000,2655,0xD5,0x6C,Read,ACK
6.6448092000,2655,0xD5,0xFF,Read,ACK
6.6448396000,2655,0xD5,0xAD,Read,ACK
6.6448700000,2655,0xD5,0xFF,Read,NAK
6.6641464000,2657,0xD4,0x1E,Write,ACK
6.6642168000,2658,0xD5,0x07,Read,NAK
6.6642844000,2660,0xD4,0x28,Write,ACK
6.6643494000,2661,0xD5,0xE0,Read,ACK
6.6643798000,2661,0xD5,0x00,Read,ACK
6.6644102000,2661,0xD5,0x5C,Read,ACK
6.6644406000,2661,0xD5,0xFF,Read,ACK
6.6644712000,2661,0xD5,0x97,Read,ACK
6.6645352000,2661,0xD5,0x40,Read,NAK
6.6646016000,2663,0xD4,0x20,Write,ACK
6.6646664000,2664,0xD5,0x9E,Read,ACK
6.6646968000,2664,0xD5,0xFC,Read,ACK
6.6647272000,2664,0xD5,0x56,Read,ACK
6.6647576000,2664,0xD5,0x00,Read,ACK
6.6647880000,2664,0xD5,0x68,Read,ACK
6.6648184000,2664,0xD5,0xFF,Read,ACK
6.6648486000,2664,0xD5,0xAC,Read,ACK
6.6648790000,2664,0xD5,0xFF,Read,NAK
6.6841456000,2666,0xD4,0x1E,Write,ACK
6.6842132000,2667,0xD5,0x07,Read,NAK
6.6842796000,2669,0xD4,0x28,Write,ACK
6.6843444000,2670,0xD5,0xE2,Read,ACK
6.6843746000,2670,0xD5,0x00,Read,ACK
6.6844050000,2670,0xD5,0x5B,Read,ACK
6.6844354000,2670,0xD5,0xFF,Read,ACK
6.6844656000,2670,0xD5,0x86,Read,ACK
6.6845362000,2670,0xD5,0x40,Read,NAK
6.6846026000,2672,0xD4,0x20,Write,ACK
6.6846674000,2673,0xD5,0x99,Read,ACK
6.6846978000,2673,0xD5,0xFC,Read,ACK
6.6847282000,2673,0xD5,0x58,Read,ACK
6.6847584000,2673,0xD5,0x00,Read,ACK
6.6847888000,2673,0xD5,0x62,Read,ACK
6.6848192000,2673,0xD5,0xFF,Read,ACK
6.6848496000,2673,0xD5,0xAC,Read,ACK
6.6848800000,2673,0xD5,0xFF,Read,NAK
6.7041480000,2675,0xD4,0x1E,Write,ACK
6.7042128000,2676,0xD5,0x07,Read,NAK
6.7042794000,2678,0xD4,0x28,Write,ACK
6.7043442000,2679,0xD5,0xE4,Read,ACK
6.7043744000,2679,0xD5,0x00,Read,ACK
6.7044048000,2679,0xD5,0x5C,Read,ACK
6.7044352000,2679,0xD5,0xFF,Read,ACK
6.7044654000,2679,0xD5,0x80,Read,ACK
6.7045390000,2679,0xD5,0x40,Read,NAK
6.7046054000,2681,0xD4,0x20,Write,ACK
6.7046702000,2682,0xD5,0x9F,Read,ACK
6.7047006000,2682,0xD5,0xFC,Read,ACK
6.7047308000,2682,0xD5,0x56,Read,ACK
6.7047612000,2682,0xD5,0x00,Read,ACK
6.7047916000,2682,0xD5,0x69,Read,ACK
6.7048220000,2682,0xD5,0xFF,Read,ACK
6.7048524000,2682,0xD5,0xAF,Read,ACK
6.7048826000,2682,0xD5,0xFF,Read,NAK
6.7241582000,2684,0xD4,0x1E,Write,ACK
6.7242258000,2685,0xD5,0x07,Read,NAK
6.7242924000,2687,0xD4,0x28,Write,ACK
6.7243572000,2688,0xD5,0xE4,Read,ACK
6.7243876000,2688,0xD5,0x00,Read,ACK
6.7244180000,2688,0xD5,0x5A,Read,ACK
6.7244484000,2688,0xD5,0xFF,Read,ACK
6.7244786000,2688,0xD5,0x96,Read,ACK
6.7245534000,2688,0xD5,0x40,Read,NAK
6.7246240000,2690,0xD4,0x20,Write,ACK
6.7246922000,2691,0xD5,0x9E,Read,ACK
6.7247234000,2691,0xD5,0xFC,Read,ACK
6.7247540000,2691,0xD5,0x56,Read,ACK
6.7247848000,2691,0xD5,0x00,Read,ACK
6.7248154000,2691,0xD5,0x69,Read,ACK
6.7248460000,2691,0xD5,0xFF,Read,ACK
6.7248768000,2691,0xD5,0xB3,Read,ACK
6.7249074000,2691,0xD5,0xFF,Read,NAK
6.7441618000,2693,0xD4,0x1E,Write,ACK
6.7442338000,2694,0xD5,0x07,Read,NAK
6.7443012000,2696,0xD4,0x28,Write,ACK
6.7443662000,2697,0xD5,0xE4,Read,ACK
6.7443964000,2697,0xD5,0x00,Read,ACK
6.7444270000,2697,0xD5,0x56,Read,ACK
6.7444572000,2697,0xD5,0xFF,Read,ACK
6.7444876000,2697,0xD5,0x98,Read,ACK
6.7445526000,2697,0xD5,0x40,Read,NAK
6.7446192000,2699,0xD4,0x20,Write,ACK
6.7446840000,2700,0xD5,0xA4,Read,ACK
6.7447144000,2700,0xD5,0xFC,Read,ACK
6.7447448000,2700,0xD5,0x54,Read,ACK
6.7447752000,2700,0xD5,0x00,Read,ACK
6.7448056000,2700,0xD5,0x62,Read,ACK
6.7448360000,2700,0xD5,0xFF,Read,ACK
6.7448664000,2700,0xD5,0xB3,Read,ACK
6.7448968000,2700,0xD5,0xFF,Read,NAK
6.7641776000,2702,0xD4,0x1E,Write,ACK
6.7642480000,2703,0xD5,0x07,Read,NAK
6.7643164000,2705,0xD4,0x28,Write,ACK
6.7643812000,2706,0xD5,0xE4,Read,ACK
6.7644116000,2706,0xD5,0x00,Read,ACK
6.7644422000,2706,0xD5,0x58,Read,ACK
6.7644726000,2706,0xD5,0xFF,Read,ACK
6.7645028000,2706,0xD5,0x8B,Read,ACK
6.7645600000,2706,0xD5,0x40,Read,NAK
6.7646266000,2708,0xD4,0x20,Write,ACK
6.7646914000,2709,0xD5,0x9E,Read,ACK
6.7647218000,2709,0xD5,0xFC,Read,ACK
6.7647522000,2709,0xD5,0x4D,Read,ACK
6.7647826000,2709,0xD5,0x00,Read,ACK
6.7648132000,2709,0xD5,0x68,Read,ACK
6.7648436000,2709,0xD5,0xFF,Read,ACK
6.7648738000,2709,0xD5,0xB3,Read,ACK
6.7649042000,2709,0xD5,0xFF,Read,NAK
6.7841718000,2711,0xD4,0x1E,Write,ACK
6.7842366000,2712,0xD5,0x07,Read,NAK
6.7843032000,2714,0xD4,0x28,Write,ACK
6.7843680000,2715,0xD5,0xE0,Read,ACK
6.7843984000,2715,0xD5,0x00,Read,ACK
6.7844288000,2715,0xD5,0x5C,Read,ACK
6.7844592000,2715,0xD5,0xFF,Read,ACK
6.7844896000,2715,0xD5,0x96,Read,ACK
6.7845674000,2715,0xD5,0x40,Read,NAK
6.7846340000,2717,0xD4,0x20,Write,ACK
6.7846990000,2718,0xD5,0xB2,Read,ACK
6.7847292000,2718,0xD5,0xFC,Read,ACK
6.7847596000,2718,0xD5,0x4E,Read,ACK
6.7847900000,2718,0xD5,0x00,Read,ACK
6.7848204000,2718,0xD5,0x67,Read,ACK
6.7848508000,2718,0xD5,0xFF,Read,ACK
6.7848812000,2718,0xD5,0xB3,Read,ACK
6.7849114000,2718,0xD5,0xFF,Read,NAK
6.8041752000,2720,0xD4,0x1E,Write,ACK
6.8042400000,2721,0xD5,0x07,Read,NAK
6.8043066000,2723,0xD4,0x28,Write,ACK
6.8043716000,2724,0xD5,0xDE,Read,ACK
6.8044018000,2724,0xD5,0x00,Read,ACK
6.8044324000,2724,0xD5,0x5A,Read,ACK
6.8044626000,2724,0xD5,0xFF,Read,ACK
6.8044930000,2724,0xD5,0x90,Read,ACK
6.8045670000,2724,0xD5,0x40,Read,NAK
6.8046338000,2726,0xD4,0x20,Write,ACK
6.8046988000,2727,0xD5,0x97,Read,ACK
6.8047290000,2727,0xD5,0xFC,Read,ACK
6.8047594000,2727,0xD5,0x59,Read,ACK
6.8047898000,2727,0xD5,0x00,Read,ACK
6.8048204000,2727,0xD5,0x57,Read,ACK
6.8048508000,2727,0xD5,0xFF,Read,ACK
6.8048812000,2727,0xD5,0xB1,Read,ACK
6.8049116000,2727,0xD5,0xFF,Read,NAK
6.8241800000,2729,0xD4,0x1E,Write,ACK
6.8242476000,2730,0xD5,0x07,Read,NAK
6.8243142000,2732,0xD4,0x28,Write,ACK
6.8243790000,2733,0xD5,0xE2,Read,ACK
6.8244094000,2733,0xD5,0x00,Read,ACK
6.8244398000,2733,0xD5,0x5A,Read,ACK
6.8244702000,2733,0xD5,0xFF,Read,ACK
6.8245004000,2733,0xD5,0x88,Read,ACK
6.8245778000,2733,0xD5,0x40,Read,NAK
6.8246500000,2735,0xD4,0x20,Write,ACK
6.8247172000,2736,0xD5,0x9A,Read,ACK
6.8247492000,2736,0xD5,0xFC,Read,ACK
6.8247800000,2736,0xD5,0x5D,Read,ACK
6.8248106000,2736,0xD5,0x00,Read,ACK
6.8248420000,2736,0xD5,0x5B,Read,ACK
6.8248726000,2736,0xD5,0xFF,Read,ACK
6.8249032000,2736,0xD5,0xAC,Read,ACK
6.8249336000,2736,0xD5,0xFF,Read,NAK
6.8441840000,2738,0xD4,0x1E,Write,ACK
6.8442608000,2739,0xD5,0x07,Read,NAK
6.8443272000,2741,0xD4,0x28,Write,ACK
6.8443932000,2742,0xD5,0xE8,Read,ACK
6.8444236000,2742,0xD5,0x00,Read,ACK
6.8444540000,2742,0xD5,0x5B,Read,ACK
6.8444844000,2742,0xD5,0xFF,Read,ACK
6.8445148000,2742,0xD5,0x90,Read,ACK
6.8445788000,2742,0xD5,0x40,Read,NAK
6.8446454000,2744,0xD4,0x20,Write,ACK
6.8447102000,2745,0xD5,0xA3,Read,ACK
6.8447406000,2745,0xD5,0xFC,Read,ACK
6.8447708000,2745,0xD5,0x5B,Read,ACK
6.8448012000,2745,0xD5,0x00,Read,ACK
6.8448316000,2745,0xD5,0x5E,Read,ACK
6.8448620000,2745,0xD5,0xFF,Read,ACK
6.8448924000,2745,0xD5,0xA6,Read,ACK
6.8449228000,2745,0xD5,0xFF,Read,NAK
6.8642008000,2747,0xD4,0x1E,Write,ACK
6.8642720000,2748,0xD5,0x07,Read,NAK
6.8643394000,2750,0xD4,0x28,Write,ACK
6.8644044000,2751,0xD5,0xE6,Read,ACK
6.8644348000,2751,0xD5,0x00,Read,ACK
6.8644652000,2751,0xD5,0x5A,Read,ACK
6.8644956000,2751,0xD5,0xFF,Read,ACK
6.8645260000,2751,0xD5,0x90,Read,ACK
6.8645882000,2751,0xD5,0x40,Read,NAK
6.8646548000,2753,0xD4,0x20,Write,ACK
6.8647196000,2754,0xD5,0x9E,Read,ACK
6.8647500000,2754,0xD5,0xFC,Read,ACK
6.8647804000,2754,0xD5,0x58,Read,ACK
6.8648108000,2754,0xD5,0x00,Read,ACK
6.8648414000,2754,0xD5,0x5F,Read,ACK
6.8648718000,2754,0xD5,0xFF,Read,ACK
6.8649020000,2754,0xD5,0xAE,Read,ACK
6.8649324000,2754,0xD5,0xFF,Read,NAK
6.8841964000,2756,0xD4,0x1E,Write,ACK
6.8842610000,2757,0xD5,0x07,Read,NAK
6.8843276000,2759,0xD4,0x28,Write,ACK
6.8843924000,2760,0xD5,0xE4,Read,ACK
6.8844228000,2760,0xD5,0x00,Read,ACK
6.8844532000,2760,0xD5,0x5A,Read,ACK
6.8844836000,2760,0xD5,0xFF,Read,ACK
6.8845140000,2760,0xD5,0x88,Read,ACK
6.8845880000,2760,0xD5,0x40,Read,NAK
6.8846546000,2762,0xD4,0x20,Write,ACK
6.8847194000,2763,0xD5,0xA0,Read,ACK
6.8847498000,2763,0xD5,0xFC,Read,ACK
6.8847802000,2763,0xD5,0x51,Read,ACK
6.8848106000,2763,0xD5,0x00,Read,ACK
6.8848410000,2763,0xD5,0x5C,Read,ACK
6.8848714000,2763,0xD5,0xFF,Read,ACK
6.8849018000,2763,0xD5,0xB0,Read,ACK
6.8849322000,2763,0xD5,0xFF,Read,NAK
6.9042064000,2765,0xD4,0x1E,Write,ACK
6.9042740000,2766,0xD5,0x07,Read,NAK
6.9043404000,2768,0xD4,0x28,Write,ACK
6.9044052000,2769,0xD5,0xE6,Read,ACK
6.9044356000,2769,0xD5,0x00,Read,ACK
6.9044662000,2769,0xD5,0x5A,Read,ACK
6.9044964000,2769,0xD5,0xFF,Read,ACK
6.9045268000,2769,0xD5,0x88,Read,ACK
6.9045948000,2769,0xD5,0x40,Read,NAK
6.9046612000,2771,0xD4,0x20,Write,ACK
6.9047260000,2772,0xD5,0xA2,Read,ACK
6.9047564000,2772,0xD5,0xFC,Read,ACK
6.9047866000,2772,0xD5,0x57,Read,ACK
6.9048170000,2772,0xD5,0x00,Read,ACK
6.9048474000,2772,0xD5,0x5E,Read,ACK
6.9048778000,2772,0xD5,0xFF,Read,ACK
6.9049082000,2772,0xD5,0xAE,Read,ACK
6.9049384000,2772,0xD5,0xFF,Read,NAK
6.9242070000,2774,0xD4,0x1E,Write,ACK
6.9242718000,2775,0xD5,0x07,Read,NAK
6.9243382000,2777,0xD4,0x28,Write,ACK
6.9244032000,2778,0xD5,0xE8,Read,ACK
6.9244336000,2778,0xD5,0x00,Read,ACK
6.9244640000,2778,0xD5,0x5B,Read,ACK
6.9244944000,2778,0xD5,0xFF,Read,ACK
6.9245246000,2778,0xD5,0x86,Read,ACK
6.9246010000,2778,0xD5,0x40,Read,NAK
6.9246704000,2780,0xD4,0x20,Write,ACK
6.9247376000,2781,0xD5,0xA2,Read,ACK
6.9247690000,2781,0xD5,0xFC,Read,ACK
6.9247998000,2781,0xD5,0x5D,Read,ACK
6.9248304000,2781,0xD5,0x00,Read,ACK
6.9248610000,2781,0xD5,0x60,Read,ACK
6.9248918000,2781,0xD5,0xFF,Read,ACK
6.9249222000,2781,0xD5,0xAC,Read,ACK
6.9249530000,2781,0xD5,0xFF,Read,NAK
6.9442108000,2783,0xD4,0x1E,Write,ACK
6.9442794000,2784,0xD5,0x07,Read,NAK
6.9443468000,2786,0xD4,0x28,Write,ACK
6.9444116000,2787,0xD5,0xE8,Read,ACK
6.9444420000,2787,0xD5,0x00,Read,ACK
6.9444726000,2787,0xD5,0x5A,Read,ACK
6.9445028000,2787,0xD5,0xFF,Read,ACK
6.9445332000,2787,0xD5,0x84,Read,ACK
6.9446054000,2787,0xD5,0x40,Read,NAK
6.9446720000,2789,0xD4,0x20,Write,ACK
6.9447368000,2790,0xD5,0xB0,Read,ACK
6.9447672000,2790,0xD5,0xFC,Read,ACK
6.9447976000,2790,0xD5,0x59,Read,ACK
6.9448280000,2790,0xD5,0x00,Read,ACK
6.9448584000,2790,0xD5,0x5C,Read,ACK
6.9448888000,2790,0xD5,0xFF,Read,ACK
6.9449192000,2790,0xD5,0xB1,Read,ACK
6.9449496000,2790,0xD5,0xFF,Read,NAK
6.9642272000,2792,0xD4,0x1E,Write,ACK
6.9642978000,2793,0xD5,0x07,Read,NAK
6.9643652000,2795,0xD4,0x28,Write,ACK
6.9644302000,2796,0xD5,0xE4,Read,ACK
6.9644606000,2796,0xD5,0x00,Read,ACK
6.9644910000,2796,0xD5,0x5A,Read,ACK
6.9645214000,2796,0xD5,0xFF,Read,ACK
6.9645518000,2796,0xD5,0x8B,Read,ACK
6.9646104000,2796,0xD5,0x40,Read,NAK
6.9646770000,2798,0xD4,0x20,Write,ACK
6.9647418000,2799,0xD5,0xA8,Read,ACK
6.9647722000,2799,0xD5,0xFC,Read,ACK
6.9648026000,2799,0xD5,0x57,Read,ACK
6.9648328000,2799,0xD5,0x00,Read,ACK
6.9648634000,2799,0xD5,0x63,Read,ACK
6.9648938000,2799,0xD5,0xFF,Read,ACK
6.9649240000,2799,0xD5,0xB9,Read,ACK
6.9649544000,2799,0xD5,0xFF,Read,NAK
6.9842228000,2801,0xD4,0x1E,Write,ACK
6.9842876000,2802,0xD5,0x07,Read,NAK
6.9843540000,2804,0xD4,0x28,Write,ACK
6.9844188000,2805,0xD5,0xE2,Read,ACK
6.9844494000,2805,0xD5,0x00,Read,ACK
6.9844798000,2805,0xD5,0x5A,Read,ACK
6.9845102000,2805,0xD5,0xFF,Read,ACK
6.9845404000,2805,0xD5,0x94,Read,ACK
6.9846144000,2805,0xD5,0x40,Read,NAK
6.9846808000,2807,0xD4,0x20,Write,ACK
6.9847456000,2808,0xD5,0xA2,Read,ACK
6.9847760000,2808,0xD5,0xFC,Read,ACK
6.9848064000,2808,0xD5,0x58,Read,ACK
6.9848368000,2808,0xD5,0x00,Read,ACK
6.9848672000,2808,0xD5,0x64,Read,ACK
6.9848978000,2808,0xD5,0xFF,Read,ACK
6.9849280000,2808,0xD5,0xB1,Read,ACK
6.9849584000,2808,0xD5,0xFF,Read,NAK
7.0042308000,2810,0xD4,0x1E,Write,ACK
7.0042984000,2811,0xD5,0x07,Read,NAK
7.0043648000,2813,0xD4,0x28,Write,ACK
7.0044296000,2814,0xD5,0xE2,Read,ACK
7.0044598000,2814,0xD5,0x00,Read,ACK
7.0044902000,2814,0xD5,0x59,Read,ACK
7.0045206000,2814,0xD5,0xFF,Read,ACK
7.0045510000,2814,0xD5,0x90,Read,ACK
7.0046214000,2814,0xD5,0x40,Read,NAK
7.0046878000,2816,0xD4,0x20,Write,ACK
7.0047526000,2817,0xD5,0x99,Read,ACK
7.0047830000,2817,0xD5,0xFC,Read,ACK
7.0048134000,2817,0xD5,0x4C,Read,ACK
7.0048438000,2817,0xD5,0x00,Read,ACK
7.0048742000,2817,0xD5,0x68,Read,ACK
7.0049046000,2817,0xD5,0xFF,Read,ACK
7.0049350000,2817,0xD5,0xA9,Read,ACK
7.0049654000,2817,0xD5,0xFF,Read,NAK
7.0242334000,2819,0xD4,0x1E,Write,ACK
7.0242982000,2820,0xD5,0x07,Read,NAK
7.0243648000,2822,0xD4,0x28,Write,ACK
7.0244296000,2823,0xD5,0xE1,Read,ACK
7.0244600000,2823,0xD5,0x00,Read,ACK
7.0244904000,2823,0xD5,0x5C,Read,ACK
7.0245208000,2823,0xD5,0xFF,Read,ACK
7.0245512000,2823,0xD5,0x8B,Read,ACK
7.0246416000,2823,0xD5,0x40,Read,NAK
7.0247100000,2825,0xD4,0x20,Write,ACK
7.0247778000,2826,0xD5,0xAA,Read,ACK
7.0248090000,2826,0xD5,0xFC,Read,ACK
7.0248396000,2826,0xD5,0x54,Read,ACK
7.0248704000,2826,0xD5,0x00,Read,ACK
7.0249012000,2826,0xD5,0x5C,Read,ACK
7.0249318000,2826,0xD5,0xFF,Read,ACK
7.0249622000,2826,0xD5,0xB2,Read,ACK
7.0249928000,2826,0xD5,0xFF,Read,NAK
7.0442376000,2828,0xD4,0x1E,Write,ACK
7.0443052000,2829,0xD5,0x07,Read,NAK
7.0443728000,2831,0xD4,0x28,Write,ACK
7.0444376000,2832,0xD5,0xDE,Read,ACK
7.0444680000,2832,0xD5,0x00,Read,ACK
7.0444984000,2832,0xD5,0x5C,Read,ACK
7.0445288000,2832,0xD5,0xFF,Read,ACK
7.0445590000,2832,0xD5,0x8E,Read,ACK
7.0446330000,2832,0xD5,0x40,Read,NAK
7.0446996000,2834,0xD4,0x20,Write,ACK
7.0447644000,2835,0xD5,0xA2,Read,ACK
7.0447948000,2835,0xD5,0xFC,Read,ACK
7.0448252000,2835,0xD5,0x59,Read,ACK
7.0448556000,2835,0xD5,0x00,Read,ACK
7.0448860000,2835,0xD5,0x64,Read,ACK
7.0449164000,2835,0xD5,0xFF,Read,ACK
7.0449466000,2835,0xD5,0xB1,Read,ACK
7.0449770000,2835,0xD5,0xFF,Read,NAK
7.0642526000,2837,0xD4,0x1E,Write,ACK
7.0643230000,2838,0xD5,0x07,Read,NAK
7.0643906000,2840,0xD4,0x28,Write,ACK
7.0644554000,2841,0xD5,0xDE,Read,ACK
7.0644858000,2841,0xD5,0x00,Read,ACK
7.0645164000,2841,0xD5,0x5C,Read,ACK
7.0645466000,2841,0xD5,0xFF,Read,ACK
7.0645768000,2841,0xD5,0x8F,Read,ACK
7.0646418000,2841,0xD5,0x40,Read,NAK
7.0647084000,2843,0xD4,0x20,Write,ACK
7.0647734000,2844,0xD5,0xB2,Read,ACK
7.0648038000,2844,0xD5,0xFC,Read,ACK
7.0648340000,2844,0xD5,0x61,Read,ACK
7.0648644000,2844,0xD5,0x00,Read,ACK
7.0648948000,2844,0xD5,0x64,Read,ACK
7.0649252000,2844,0xD5,0xFF,Read,ACK
7.0649554000,2844,0xD5,0xB0,Read,ACK
7.0649858000,2844,0xD5,0xFF,Read,NAK
7.0842538000,2846,0xD4,0x1E,Write,ACK
7.0843214000,2847,0xD5,0x07,Read,NAK
7.0843876000,2849,0xD4,0x28,Write,ACK
7.0844524000,2850,0xD5,0xE0,Read,ACK
7.0844828000,2850,0xD5,0x00,Read,ACK
7.0845132000,2850,0xD5,0x5A,Read,ACK
7.0845436000,2850,0xD5,0xFF,Read,ACK
7.0845738000,2850,0xD5,0x8A,Read,ACK
7.0846426000,2850,0xD5,0x40,Read,NAK
7.0847092000,2852,0xD4,0x20,Write,ACK
7.0847740000,2853,0xD5,0xA2,Read,ACK
7.0848042000,2853,0xD5,0xFC,Read,ACK
7.0848346000,2853,0xD5,0x64,Read,ACK
7.0848650000,2853,0xD5,0x00,Read,ACK
7.0848954000,2853,0xD5,0x63,Read,ACK
7.0849258000,2853,0xD5,0xFF,Read,ACK
7.0849560000,2853,0xD5,0xB0,Read,ACK
7.0849864000,2853,0xD5,0xFF,Read,NAK
7.1042544000,2855,0xD4,0x1E,Write,ACK
7.1043190000,2856,0xD5,0x07,Read,NAK
7.1043856000,2858,0xD4,0x28,Write,ACK
7.1044504000,2859,0xD5,0xE3,Read,ACK
7.1044808000,2859,0xD5,0x00,Read,ACK
7.1045112000,2859,0xD5,0x59,Read,ACK
7.1045416000,2859,0xD5,0xFF,Read,ACK
7.1045718000,2859,0xD5,0x8E,Read,ACK
7.1046454000,2859,0xD5,0x40,Read,NAK
7.1047118000,2861,0xD4,0x20,Write,ACK
7.1047768000,2862,0xD5,0xA2,Read,ACK
7.1048072000,2862,0xD5,0xFC,Read,ACK
7.1048374000,2862,0xD5,0x5B,Read,ACK
7.1048678000,2862,0xD5,0x00,Read,ACK
7.1048982000,2862,0xD5,0x61,Read,ACK
7.1049286000,2862,0xD5,0xFF,Read,ACK
7.1049588000,2862,0xD5,0xB0,Read,ACK
7.1049892000,2862,0xD5,0xFF,Read,NAK
7.1242644000,2864,0xD4,0x1E,Write,ACK
7.1243320000,2865,0xD5,0x07,Read,NAK
7.1243986000,2867,0xD4,0x28,Write,ACK
7.1244634000,2868,0xD5,0xE4,Read,ACK
7.1244938000,2868,0xD5,0x00,Read,ACK
7.1245242000,2868,0xD5,0x5A,Read,ACK
7.1245546000,2868,0xD5,0xFF,Read,ACK
7.1245850000,2868,0xD5,0x92,Read,ACK
7.1246596000,2868,0xD5,0x40,Read,NAK
7.1247300000,2870,0xD4,0x20,Write,ACK
7.1247998000,2871,0xD5,0xAC,Read,ACK
7.1248304000,2871,0xD5,0xFC,Read,ACK
7.1248618000,2871,0xD5,0x51,Read,ACK
7.1248924000,2871,0xD5,0x00,Read,ACK
7.1249234000,2871,0xD5,0x62,Read,ACK
7.1249540000,2871,0xD5,0xFF,Read,ACK
7.1249846000,2871,0xD5,0xB0,Read,ACK
7.1250152000,2871,0xD5,0xFF,Read,NAK
7.1442632000,2873,0xD4,0x1E,Write,ACK
7.1443290000,2874,0xD5,0x07,Read,NAK
7.1443956000,2876,0xD4,0x28,Write,ACK
7.1444614000,2877,0xD5,0xE1,Read,ACK
7.1444918000,2877,0xD5,0x00,Read,ACK
7.1445222000,2877,0xD5,0x5B,Read,ACK
7.1445526000,2877,0xD5,0xFF,Read,ACK
7.1445830000,2877,0xD5,0x91,Read,ACK
7.1446572000,2877,0xD5,0x40,Read,NAK
7.1447238000,2879,0xD4,0x20,Write,ACK
7.1447886000,2880,0xD5,0xB0,Read,ACK
7.1448190000,2880,0xD5,0xFC,Read,ACK
7.1448494000,2880,0xD5,0x53,Read,ACK
7.1448796000,2880,0xD5,0x00,Read,ACK
7.1449102000,2880,0xD5,0x62,Read,ACK
7.1449406000,2880,0xD5,0xFF,Read,ACK
7.1449710000,2880,0xD5,0xB1,Read,ACK
7.1450012000,2880,0xD5,0xFF,Read,NAK
7.1642800000,2882,0xD4,0x1E,Write,ACK
7.1643504000,2883,0xD5,0x07,Read,NAK
7.1644180000,2885,0xD4,0x28,Write,ACK
7.1644828000,2886,0xD5,0xE2,Read,ACK
7.1645132000,2886,0xD5,0x00,Read,ACK
7.1645438000,2886,0xD5,0x5B,Read,ACK
7.1645742000,2886,0xD5,0xFF,Read,ACK
7.1646044000,2886,0xD5,0x90,Read,ACK
7.1646680000,2886,0xD5,0x40,Read,NAK
7.1647346000,2888,0xD4,0x20,Write,ACK
7.1647994000,2889,0xD5,0xA2,Read,ACK
7.1648300000,2889,0xD5,0xFC,Read,ACK
7.1648602000,2889,0xD5,0x57,Read,ACK
7.1648906000,2889,0xD5,0x00,Read,ACK
7.1649212000,2889,0xD5,0x5C,Read,ACK
7.1649516000,2889,0xD5,0xFF,Read,ACK
7.1649818000,2889,0xD5,0xB1,Read,ACK
7.1650122000,2889,0xD5,0xFF,Read,NAK
7.1842782000,2891,0xD4,0x1E,Write,ACK
7.1843458000,2892,0xD5,0x07,Read,NAK
7.1844122000,2894,0xD4,0x28,Write,ACK
7.1844770000,2895,0xD5,0xE4,Read,ACK
7.1845074000,2895,0xD5,0x00,Read,ACK
7.1845378000,2895,0xD5,0x5A,Read,ACK
7.1845682000,2895,0xD5,0xFF,Read,ACK
7.1845984000,2895,0xD5,0x90,Read,ACK
7.1846690000,2895,0xD5,0x40,Read,NAK
7.1847354000,2897,0xD4,0x20,Write,ACK
7.1848002000,2898,0xD5,0x9E,Read,ACK
7.1848306000,2898,0xD5,0xFC,Read,ACK
7.1848608000,2898,0xD5,0x59,Read,ACK
7.1848912000,2898,0xD5,0x00,Read,ACK
7.1849216000,2898,0xD5,0x64,Read,ACK
7.1849520000,2898,0xD5,0xFF,Read,ACK
7.1849824000,2898,0xD5,0xAD,Read,ACK
7.1850128000,2898,0xD5,0xFF,Read,NAK
7.2042806000,2900,0xD4,0x1E,Write,ACK
7.2043454000,2901,0xD5,0x07,Read,NAK
7.2044120000,2903,0xD4,0x28,Write,ACK
7.2044768000,2904,0xD5,0xE4,Read,ACK
7.2045072000,2904,0xD5,0x00,Read,ACK
7.2045376000,2904,0xD5,0x58,Read,ACK
7.2045680000,2904,0xD5,0xFF,Read,ACK
7.2045982000,2904,0xD5,0x90,Read,ACK
7.2046718000,2904,0xD5,0x40,Read,NAK
7.2047384000,2906,0xD4,0x20,Write,ACK
7.2048032000,2907,0xD5,0xAA,Read,ACK
7.2048334000,2907,0xD5,0xFC,Read,ACK
7.2048638000,2907,0xD5,0x59,Read,ACK
7.2048942000,2907,0xD5,0x00,Read,ACK
7.2049248000,2907,0xD5,0x5B,Read,ACK
7.2049552000,2907,0xD5,0xFF,Read,ACK
7.2049854000,2907,0xD5,0xAC,Read,ACK
7.2050158000,2907,0xD5,0xFF,Read,NAK
7.2242890000,2909,0xD4,0x1E,Write,ACK
7.2243566000,2910,0xD5,0x07,Read,NAK
7.2244232000,2912,0xD4,0x28,Write,ACK
7.2244878000,2913,0xD5,0xE5,Read,ACK
7.2245182000,2913,0xD5,0x00,Read,ACK
7.2245486000,2913,0xD5,0x58,Read,ACK
7.2245792000,2913,0xD5,0xFF,Read,ACK
7.2246094000,2913,0xD5,0x8B,Read,ACK
7.2246906000,2913,0xD5,0x40,Read,NAK
7.2247602000,2915,0xD4,0x20,Write,ACK
7.2248308000,2916,0xD5,0xAC,Read,ACK
7.2248616000,2916,0xD5,0xFC,Read,ACK
7.2248920000,2916,0xD5,0x5A,Read,ACK
7.2249228000,2916,0xD5,0x00,Read,ACK
7.2249542000,2916,0xD5,0x5C,Read,ACK
7.2249852000,2916,0xD5,0xFF,Read,ACK
7.2250158000,2916,0xD5,0xB1,Read,ACK
7.2250462000,2916,0xD5,0xFF,Read,NAK
7.2442894000,2918,0xD4,0x1E,Write,ACK
7.2443552000,2919,0xD5,0x07,Read,NAK
7.2444216000,2921,0xD4,0x28,Write,ACK
7.2444874000,2922,0xD5,0xE2,Read,ACK
7.2445178000,2922,0xD5,0x00,Read,ACK
7.2445484000,2922,0xD5,0x5A,Read,ACK
7.2445788000,2922,0xD5,0xFF,Read,ACK
7.2446090000,2922,0xD5,0x8C,Read,ACK
7.2446832000,2922,0xD5,0x40,Read,NAK
7.2447498000,2924,0xD4,0x20,Write,ACK
7.2448146000,2925,0xD5,0xBB,Read,ACK
7.2448450000,2925,0xD5,0xFC,Read,ACK
7.2448754000,2925,0xD5,0x53,Read,ACK
7.2449058000,2925,0xD5,0x00,Read,ACK
7.2449362000,2925,0xD5,0x68,Read,ACK
7.2449668000,2925,0xD5,0xFF,Read,ACK
7.2449970000,2925,0xD5,0xB2,Read,ACK
7.2450274000,2925,0xD5,0xFF,Read,NAK
7.2643062000,2927,0xD4,0x1E,Write,ACK
7.2643766000,2928,0xD5,0x07,Read,NAK
7.2644440000,2930,0xD4,0x28,Write,ACK
7.2645090000,2931,0xD5,0xE2,Read,ACK
7.2645392000,2931,0xD5,0x00,Read,ACK
7.2645698000,2931,0xD5,0x58,Read,ACK
7.2646002000,2931,0xD5,0xFF,Read,ACK
7.2646304000,2931,0xD5,0x91,Read,ACK
7.2647226000,2931,0xD5,0x40,Read,NAK
7.2647890000,2933,0xD4,0x20,Write,ACK
7.2648538000,2934,0xD5,0xA6,Read,ACK
7.2648842000,2934,0xD5,0xFC,Read,ACK
7.2649146000,2934,0xD5,0x57,Read,ACK
7.2649450000,2934,0xD5,0x00,Read,ACK
7.2649756000,2934,0xD5,0x5B,Read,ACK
7.2650058000,2934,0xD5,0xFF,Read,ACK
7.2650362000,2934,0xD5,0xAC,Read,ACK
7.2650666000,2934,0xD5,0xFF,Read,NAK
7.2843018000,2936,0xD4,0x1E,Write,ACK
7.2843666000,2937,0xD5,0x07,Read,NAK
7.2844330000,2939,0xD4,0x28,Write,ACK
7.2844978000,2940,0xD5,0xE5,Read,ACK
7.2845282000,2940,0xD5,0x00,Read,ACK
7.2845588000,2940,0xD5,0x5A,Read,ACK
7.2845890000,2940,0xD5,0xFF,Read,ACK
7.2846194000,2940,0xD5,0x8E,Read,ACK
7.2846940000,2940,0xD5,0x40,Read,NAK
7.2847604000,2942,0xD4,0x20,Write,ACK
7.2848254000,2943,0xD5,0xAA,Read,ACK
7.2848558000,2943,0xD5,0xFC,Read,ACK
7.2848860000,2943,0xD5,0x53,Read,ACK
7.2849164000,2943,0xD5,0x00,Read,ACK
7.2849470000,2943,0xD5,0x5E,Read,ACK
7.2849774000,2943,0xD5,0xFF,Read,ACK
7.2850076000,2943,0xD5,0xAA,Read,ACK
7.2850378000,2943,0xD5,0xFF,Read,NAK
7.3043118000,2945,0xD4,0x1E,Write,ACK
7.3043792000,2946,0xD5,0x07,Read,NAK
7.3044458000,2948,0xD4,0x28,Write,ACK
7.3045106000,2949,0xD5,0xE6,Read,ACK
7.3045408000,2949,0xD5,0x00,Read,ACK
7.3045712000,2949,0xD5,0x5E,Read,ACK
7.3046016000,2949,0xD5,0xFF,Read,ACK
7.3046318000,2949,0xD5,0x8A,Read,ACK
7.3047012000,2949,0xD5,0x40,Read,NAK
7.3047676000,2951,0xD4,0x20,Write,ACK
7.3048324000,2952,0xD5,0xAA,Read,ACK
7.3048628000,2952,0xD5,0xFC,Read,ACK
7.3048932000,2952,0xD5,0x59,Read,ACK
7.3049234000,2952,0xD5,0x00,Read,ACK
7.3049540000,2952,0xD5,0x5D,Read,ACK
7.3049844000,2952,0xD5,0xFF,Read,ACK
7.3050148000,2952,0xD5,0xAA,Read,ACK
7.3050450000,2952,0xD5,0xFF,Read,NAK
7.3243124000,2954,0xD4,0x1E,Write,ACK
7.3243772000,2955,0xD5,0x07,Read,NAK
7.3244438000,2957,0xD4,0x28,Write,ACK
7.3245086000,2958,0xD5,0xE8,Read,ACK
7.3245390000,2958,0xD5,0x00,Read,ACK
7.3245696000,2958,0xD5,0x5F,Read,ACK
7.3245998000,2958,0xD5,0xFF,Read,ACK
7.3246302000,2958,0xD5,0x8F,Read,ACK
7.3247068000,2958,0xD5,0x40,Read,NAK
7.3247762000,2960,0xD4,0x20,Write,ACK
7.3248438000,2961,0xD5,0xA8,Read,ACK
7.3248746000,2961,0xD5,0xFC,Read,ACK
7.3249050000,2961,0xD5,0x57,Read,ACK
7.3249356000,2961,0xD5,0x00,Read,ACK
7.3249662000,2961,0xD5,0x5F,Read,ACK
7.3249970000,2961,0xD5,0xFF,Read,ACK
7.3250274000,2961,0xD5,0xAE,Read,ACK
7.3250646000,2961,0xD5,0xFF,Read,NAK
7.3443160000,2963,0xD4,0x1E,Write,ACK
7.3443816000,2964,0xD5,0x07,Read,NAK
7.3444482000,2966,0xD4,0x28,Write,ACK
7.3445140000,2967,0xD5,0xE8,Read,ACK
7.3445444000,2967,0xD5,0x00,Read,ACK
7.3445750000,2967,0xD5,0x60,Read,ACK
7.3446054000,2967,0xD5,0xFF,Read,ACK
7.3446356000,2967,0xD5,0x8E,Read,ACK
7.3447100000,2967,0xD5,0x40,Read,NAK
7.3447766000,2969,0xD4,0x20,Write,ACK
7.3448414000,2970,0xD5,0xA4,Read,ACK
7.3448718000,2970,0xD5,0xFC,Read,ACK
7.3449022000,2970,0xD5,0x4C,Read,ACK
7.3449326000,2970,0xD5,0x00,Read,ACK
7.3449630000,2970,0xD5,0x6E,Read,ACK
7.3449936000,2970,0xD5,0xFF,Read,ACK
7.3450240000,2970,0xD5,0xB5,Read,ACK
7.3450542000,2970,0xD5,0xFF,Read,NAK
7.3643316000,2972,0xD4,0x1E,Write,ACK
7.3644022000,2973,0xD5,0x07,Read,NAK
7.3644696000,2975,0xD4,0x28,Write,ACK
7.3645346000,2976,0xD5,0xE2,Read,ACK
7.3645650000,2976,0xD5,0x00,Read,ACK
7.3645954000,2976,0xD5,0x5C,Read,ACK
7.3646258000,2976,0xD5,0xFF,Read,ACK
7.3646562000,2976,0xD5,0x91,Read,ACK
7.3647170000,2976,0xD5,0x40,Read,NAK
7.3647836000,2978,0xD4,0x20,Write,ACK
7.3648486000,2979,0xD5,0xA2,Read,ACK
7.3648790000,2979,0xD5,0xFC,Read,ACK
7.3649094000,2979,0xD5,0x56,Read,ACK
7.3649398000,2979,0xD5,0x00,Read,ACK
7.3649702000,2979,0xD5,0x68,Read,ACK
7.3650008000,2979,0xD5,0xFF,Read,ACK
7.3650312000,2979,0xD5,0xB5,Read,ACK
7.3650616000,2979,0xD5,0xFF,Read,NAK
7.3843282000,2981,0xD4,0x1E,Write,ACK
7.3843930000,2982,0xD5,0x07,Read,NAK
7.3844594000,2984,0xD4,0x28,Write,ACK
7.3845244000,2985,0xD5,0xDE,Read,ACK
7.3845546000,2985,0xD5,0x00,Read,ACK
7.3845850000,2985,0xD5,0x59,Read,ACK
7.3846154000,2985,0xD5,0xFF,Read,ACK
7.3846458000,2985,0xD5,0x93,Read,ACK
7.3847242000,2985,0xD5,0x40,Read,NAK
7.3847906000,2987,0xD4,0x20,Write,ACK
7.3848556000,2988,0xD5,0xB4,Read,ACK
7.3848858000,2988,0xD5,0xFC,Read,ACK
7.3849162000,2988,0xD5,0x5B,Read,ACK
7.3849466000,2988,0xD5,0x00,Read,ACK
7.3849770000,2988,0xD5,0x5F,Read,ACK
7.3850074000,2988,0xD5,0xFF,Read,ACK
7.3850378000,2988,0xD5,0xB5,Read,ACK
7.3850682000,2988,0xD5,0xFF,Read,NAK
7.4043364000,2990,0xD4,0x1E,Write,ACK
7.4044038000,2991,0xD5,0x07,Read,NAK
7.4044704000,2993,0xD4,0x28,Write,ACK
7.4045352000,2994,0xD5,0xDE,Read,ACK
7.4045654000,2994,0xD5,0x00,Read,ACK
7.4045960000,2994,0xD5,0x56,Read,ACK
7.4046262000,2994,0xD5,0xFF,Read,ACK
7.4046566000,2994,0xD5,0x92,Read,ACK
7.4047276000,2994,0xD5,0x40,Read,NAK
7.4047940000,2996,0xD4,0x20,Write,ACK
7.4048588000,2997,0xD5,0xB2,Read,ACK
7.4048892000,2997,0xD5,0xFC,Read,ACK
7.4049194000,2997,0xD5,0x5B,Read,ACK
7.4049498000,2997,0xD5,0x00,Read,ACK
7.4049802000,2997,0xD5,0x61,Read,ACK
7.4050106000,2997,0xD5,0xFF,Read,ACK
7.4050410000,2997,0xD5,0xB4,Read,ACK
7.4050714000,2997,0xD5,0xFF,Read,NAK
7.4243388000,2999,0xD4,0x1E,Write,ACK
7.4244036000,3000,0xD5,0x07,Read,NAK
7.4244700000,3002,0xD4,0x28,Write,ACK
7.4245350000,3003,0xD5,0xDE,Read,ACK
7.4245654000,3003,0xD5,0x00,Read,ACK
7.4245958000,3003,0xD5,0x56,Read,ACK
7.4246262000,3003,0xD5,0xFF,Read,ACK
7.4246566000,3003,0xD5,0x8E,Read,ACK
7.4247376000,3003,0xD5,0x40,Read,NAK
7.4248062000,3005,0xD4,0x20,Write,ACK
7.4248738000,3006,0xD5,0xB2,Read,ACK
7.4249044000,3006,0xD5,0xFC,Read,ACK
7.4249350000,3006,0xD5,0x61,Read,ACK
7.4249656000,3006,0xD5,0x00,Read,ACK
7.4249964000,3006,0xD5,0x62,Read,ACK
7.4250270000,3006,0xD5,0xFF,Read,ACK
7.4250576000,3006,0xD5,0xB8,Read,ACK
7.4250882000,3006,0xD5,0xFF,Read,NAK
7.4443434000,3008,0xD4,0x1E,Write,ACK
7.4444122000,3009,0xD5,0x07,Read,NAK
7.4444796000,3011,0xD4,0x28,Write,ACK
7.4445444000,3012,0xD5,0xDE,Read,ACK
7.4445748000,3012,0xD5,0x00,Read,ACK
7.4446054000,3012,0xD5,0x58,Read,ACK
7.4446358000,3012,0xD5,0xFF,Read,ACK
7.4446662000,3012,0xD5,0x8A,Read,ACK
7.4447388000,3012,0xD5,0x40,Read,NAK
7.4448054000,3014,0xD4,0x20,Write,ACK
7.4448702000,3015,0xD5,0xA8,Read,ACK
7.4449006000,3015,0xD5,0xFC,Read,ACK
7.4449310000,3015,0xD5,0x5C,Read,ACK
7.4449614000,3015,0xD5,0x00,Read,ACK
7.4449920000,3015,0xD5,0x62,Read,ACK
7.4450224000,3015,0xD5,0xFF,Read,ACK
7.4450528000,3015,0xD5,0xB4,Read,ACK
7.4450830000,3015,0xD5,0xFF,Read,NAK
7.4643580000,3017,0xD4,0x1E,Write,ACK
7.4644286000,3018,0xD5,0x07,Read,NAK
7.4644962000,3020,0xD4,0x28,Write,ACK
7.4645610000,3021,0xD5,0xDF,Read,ACK
7.4645914000,3021,0xD5,0x00,Read,ACK
7.4646218000,3021,0xD5,0x57,Read,ACK
7.4646522000,3021,0xD5,0xFF,Read,ACK
7.4646826000,3021,0xD5,0x8F,Read,ACK
7.4647440000,3021,0xD5,0x40,Read,NAK
7.4648106000,3023,0xD4,0x20,Write,ACK
7.4648754000,3024,0xD5,0xAC,Read,ACK
7.4649058000,3024,0xD5,0xFC,Read,ACK
7.4649362000,3024,0xD5,0x58,Read,ACK
7.4649666000,3024,0xD5,0x00,Read,ACK
7.4649972000,3024,0xD5,0x65,Read,ACK
7.4650276000,3024,0xD5,0xFF,Read,ACK
7.4650578000,3024,0xD5,0xB3,Read,ACK
7.4650882000,3024,0xD5,0xFF,Read,NAK
7.4843592000,3026,0xD4,0x1E,Write,ACK
7.4844268000,3027,0xD5,0x07,Read,NAK
7.4844932000,3029,0xD4,0x28,Write,ACK
7.4845580000,3030,0xD5,0xE2,Read,ACK
7.4845882000,3030,0xD5,0x00,Read,ACK
7.4846186000,3030,0xD5,0x5A,Read,ACK
7.4846490000,3030,0xD5,0xFF,Read,ACK
7.4846794000,3030,0xD5,0x90,Read,ACK
7.4847494000,3030,0xD5,0x40,Read,NAK
7.4848158000,3032,0xD4,0x20,Write,ACK
7.4848804000,3033,0xD5,0xAC,Read,ACK
7.4849108000,3033,0xD5,0xFC,Read,ACK
7.4849412000,3033,0xD5,0x5E,Read,ACK
7.4849716000,3033,0xD5,0x00,Read,ACK
7.4850020000,3033,0xD5,0x57,Read,ACK
7.4850324000,3033,0xD5,0xFF,Read,ACK
7.4850626000,3033,0xD5,0xAF,Read,ACK
7.4850930000,3033,0xD5,0xFF,Read,NAK
7.5043596000,3035,0xD4,0x1E,Write,ACK
7.5044244000,3036,0xD5,0x07,Read,NAK
7.5044908000,3038,0xD4,0x28,Write,ACK
7.5045554000,3039,0xD5,0xE1,Read,ACK
7.5045858000,3039,0xD5,0x00,Read,ACK
7.5046162000,3039,0xD5,0x5C,Read,ACK
7.5046466000,3039,0xD5,0xFF,Read,ACK
7.5046768000,3039,0xD5,0x8C,Read,ACK
7.5047516000,3039,0xD5,0x40,Read,NAK
7.5048180000,3041,0xD4,0x20,Write,ACK
7.5048828000,3042,0xD5,0xA8,Read,ACK
7.5049132000,3042,0xD5,0xFC,Read,ACK
7.5049436000,3042,0xD5,0x50,Read,ACK
7.5049740000,3042,0xD5,0x00,Read,ACK
7.5050044000,3042,0xD5,0x60,Read,ACK
7.5050350000,3042,0xD5,0xFF,Read,ACK
7.5050652000,3042,0xD5,0xB4,Read,ACK
7.5050956000,3042,0xD5,0xFF,Read,NAK
7.5243652000,3044,0xD4,0x1E,Write,ACK
7.5244300000,3045,0xD5,0x07,Read,NAK
7.5244966000,3047,0xD4,0x28,Write,ACK
7.5245616000,3048,0xD5,0xDE,Read,ACK
7.5245918000,3048,0xD5,0x00,Read,ACK
7.5246224000,3048,0xD5,0x5A,Read,ACK
7.5246528000,3048,0xD5,0xFF,Read,ACK
7.5246830000,3048,0xD5,0x8E,Read,ACK
7.5247604000,3048,0xD5,0x40,Read,NAK
7.5248296000,3050,0xD4,0x20,Write,ACK
7.5248968000,3051,0xD5,0xAE,Read,ACK
7.5249282000,3051,0xD5,0xFC,Read,ACK
7.5249590000,3051,0xD5,0x5E,Read,ACK
7.5249896000,3051,0xD5,0x00,Read,ACK
7.5250208000,3051,0xD5,0x5D,Read,ACK
7.5250516000,3051,0xD5,0xFF,Read,ACK
7.5250822000,3051,0xD5,0xB3,Read,ACK
7.5251128000,3051,0xD5,0xFF,Read,NAK
7.5443696000,3053,0xD4,0x1E,Write,ACK
7.5444374000,3054,0xD5,0x07,Read,NAK
7.5445050000,3056,0xD4,0x28,Write,ACK
7.5445698000,3057,0xD5,0xDC,Read,ACK
7.5446000000,3057,0xD5,0x00,Read,ACK
7.5446306000,3057,0xD5,0x5A,Read,ACK
7.5446610000,3057,0xD5,0xFF,Read,ACK
7.5446912000,3057,0xD5,0x90,Read,ACK
7.5447670000,3057,0xD5,0x40,Read,NAK
7.5448336000,3059,0xD4,0x20,Write,ACK
7.5448984000,3060,0xD5,0xA6,Read,ACK
7.5449288000,3060,0xD5,0xFC,Read,ACK
7.5449592000,3060,0xD5,0x5C,Read,ACK
7.5449896000,3060,0xD5,0x00,Read,ACK
7.5450200000,3060,0xD5,0x5D,Read,ACK
7.5450504000,3060,0xD5,0xFF,Read,ACK
7.5450806000,3060,0xD5,0xB4,Read,ACK
7.5451112000,3060,0xD5,0xFF,Read,NAK
7.5643854000,3062,0xD4,0x1E,Write,ACK
7.5644560000,3063,0xD5,0x07,Read,NAK
7.5645234000,3065,0xD4,0x28,Write,ACK
7.5645882000,3066,0xD5,0xE0,Read,ACK
7.5646186000,3066,0xD5,0x00,Read,ACK
7.5646490000,3066,0xD5,0x5A,Read,ACK
7.5646794000,3066,0xD5,0xFF,Read,ACK
7.5647096000,3066,0xD5,0x92,Read,ACK
7.5647706000,3066,0xD5,0x40,Read,NAK
7.5648372000,3068,0xD4,0x20,Write,ACK
7.5649020000,3069,0xD5,0xAA,Read,ACK
7.5649326000,3069,0xD5,0xFC,Read,ACK
7.5649630000,3069,0xD5,0x50,Read,ACK
7.5649934000,3069,0xD5,0x00,Read,ACK
7.5650238000,3069,0xD5,0x5C,Read,ACK
7.5650542000,3069,0xD5,0xFF,Read,ACK
7.5650846000,3069,0xD5,0xB1,Read,ACK
7.5651150000,3069,0xD5,0xFF,Read,NAK
7.5843836000,3071,0xD4,0x1E,Write,ACK
7.5844512000,3072,0xD5,0x07,Read,NAK
7.5845176000,3074,0xD4,0x28,Write,ACK
7.5845824000,3075,0xD5,0xDE,Read,ACK
7.5846128000,3075,0xD5,0x00,Read,ACK
7.5846432000,3075,0xD5,0x5A,Read,ACK
7.5846734000,3075,0xD5,0xFF,Read,ACK
7.5847038000,3075,0xD5,0x90,Read,ACK
7.5847758000,3075,0xD5,0x40,Read,NAK
7.5848424000,3077,0xD4,0x20,Write,ACK
7.5849070000,3078,0xD5,0xAA,Read,ACK
7.5849374000,3078,0xD5,0xFC,Read,ACK
7.5849678000,3078,0xD5,0x4D,Read,ACK
7.5849982000,3078,0xD5,0x00,Read,ACK
7.5850286000,3078,0xD5,0x67,Read,ACK
7.5850590000,3078,0xD5,0xFF,Read,ACK
7.5850892000,3078,0xD5,0xB4,Read,ACK
7.5851196000,3078,0xD5,0xFF,Read,NAK
7.6043860000,3080,0xD4,0x1E,Write,ACK
7.6044506000,3081,0xD5,0x07,Read,NAK
7.6045172000,3083,0xD4,0x28,Write,ACK
7.6045820000,3084,0xD5,0xD8,Read,ACK
7.6046122000,3084,0xD5,0x00,Read,ACK
7.6046426000,3084,0xD5,0x5C,Read,ACK
7.6046730000,3084,0xD5,0xFF,Read,ACK
7.6047034000,3084,0xD5,0x90,Read,ACK
7.6047780000,3084,0xD5,0x40,Read,NAK
7.6048446000,3086,0xD4,0x20,Write,ACK
7.6049092000,3087,0xD5,0xB2,Read,ACK
7.6049396000,3087,0xD5,0xFC,Read,ACK
7.6049700000,3087,0xD5,0x57,Read,ACK
7.6050004000,3087,0xD5,0x00,Read,ACK
7.6050310000,3087,0xD5,0x61,Read,ACK
7.6050612000,3087,0xD5,0xFF,Read,ACK
7.6050916000,3087,0xD5,0xBD,Read,ACK
7.6051220000,3087,0xD5,0xFF,Read,NAK
7.6243962000,3089,0xD4,0x1E,Write,ACK
7.6244638000,3090,0xD5,0x07,Read,NAK
7.6245304000,3092,0xD4,0x28,Write,ACK
7.6245952000,3093,0xD5,0xD8,Read,ACK
7.6246256000,3093,0xD5,0x00,Read,ACK
7.6246560000,3093,0xD5,0x5A,Read,ACK
7.6246864000,3093,0xD5,0xFF,Read,ACK
7.6247166000,3093,0xD5,0x8D,Read,ACK
7.6247892000,3093,0xD5,0x40,Read,NAK
7.6248588000,3095,0xD4,0x20,Write,ACK
7.6249286000,3096,0xD5,0xAE,Read,ACK
7.6249592000,3096,0xD5,0xFC,Read,ACK
7.6249898000,3096,0xD5,0x55,Read,ACK
7.6250206000,3096,0xD5,0x00,Read,ACK
7.6250514000,3096,0xD5,0x5E,Read,ACK
7.6250820000,3096,0xD5,0xFF,Read,ACK
7.6251124000,3096,0xD5,0xB7,Read,ACK
7.6251428000,3096,0xD5,0xFF,Read,NAK
7.6443948000,3098,0xD4,0x1E,Write,ACK
7.6444604000,3099,0xD5,0x07,Read,NAK
7.6445270000,3101,0xD4,0x28,Write,ACK
7.6445928000,3102,0xD5,0xDC,Read,ACK
7.6446232000,3102,0xD5,0x00,Read,ACK
7.6446538000,3102,0xD5,0x5A,Read,ACK
7.6446840000,3102,0xD5,0xFF,Read,ACK
7.6447144000,3102,0xD5,0x8E,Read,ACK
7.6447892000,3102,0xD5,0x40,Read,NAK
7.6448558000,3104,0xD4,0x20,Write,ACK
7.6449206000,3105,0xD5,0xBE,Read,ACK
7.6449510000,3105,0xD5,0xFC,Read,ACK
7.6449814000,3105,0xD5,0x51,Read,ACK
7.6450118000,3105,0xD5,0x00,Read,ACK
7.6450422000,3105,0xD5,0x67,Read,ACK
7.6450726000,3105,0xD5,0xFF,Read,ACK
7.6451030000,3105,0xD5,0xB0,Read,ACK
7.6451334000,3105,0xD5,0xFF,Read,NAK
7.6644116000,3107,0xD4,0x1E,Write,ACK
7.6644820000,3108,0xD5,0x07,Read,NAK
7.6645494000,3110,0xD4,0x28,Write,ACK
7.6646142000,3111,0xD5,0xDE,Read,ACK
7.6646446000,3111,0xD5,0x00,Read,ACK
7.6646750000,3111,0xD5,0x5C,Read,ACK
7.6647056000,3111,0xD5,0xFF,Read,ACK
7.6647358000,3111,0xD5,0x8C,Read,ACK
7.6647972000,3111,0xD5,0x40,Read,NAK
7.6648638000,3113,0xD4,0x20,Write,ACK
7.6649288000,3114,0xD5,0xBD,Read,ACK
7.6649590000,3114,0xD5,0xFC,Read,ACK
7.6649894000,3114,0xD5,0x57,Read,ACK
7.6650198000,3114,0xD5,0x00,Read,ACK
7.6650502000,3114,0xD5,0x66,Read,ACK
7.6650808000,3114,0xD5,0xFF,Read,ACK
7.6651112000,3114,0xD5,0xB2,Read,ACK
7.6651416000,3114,0xD5,0xFF,Read,NAK
7.6844072000,3116,0xD4,0x1E,Write,ACK
7.6844720000,3117,0xD5,0x07,Read,NAK
7.6845384000,3119,0xD4,0x28,Write,ACK
7.6846032000,3120,0xD5,0xDF,Read,ACK
7.6846336000,3120,0xD5,0x00,Read,ACK
7.6846642000,3120,0xD5,0x5A,Read,ACK
7.6846944000,3120,0xD5,0xFF,Read,ACK
7.6847248000,3120,0xD5,0x8C,Read,ACK
7.6847996000,3120,0xD5,0x40,Read,NAK
7.6848662000,3122,0xD4,0x20,Write,ACK
7.6849310000,3123,0xD5,0xB8,Read,ACK
7.6849616000,3123,0xD5,0xFC,Read,ACK
7.6849918000,3123,0xD5,0x58,Read,ACK
7.6850224000,3123,0xD5,0x00,Read,ACK
7.6850528000,3123,0xD5,0x68,Read,ACK
7.6850832000,3123,0xD5,0xFF,Read,ACK
7.6851136000,3123,0xD5,0xB1,Read,ACK
7.6851440000,3123,0xD5,0xFF,Read,NAK
7.7044124000,3125,0xD4,0x1E,Write,ACK
7.7044772000,3126,0xD5,0x07,Read,NAK
7.7045438000,3128,0xD4,0x28,Write,ACK
7.7046086000,3129,0xD5,0xE0,Read,ACK
7.7046390000,3129,0xD5,0x00,Read,ACK
7.7046696000,3129,0xD5,0x56,Read,ACK
7.7046998000,3129,0xD5,0xFF,Read,ACK
7.7047300000,3129,0xD5,0x90,Read,ACK
7.7048048000,3129,0xD5,0x40,Read,NAK
7.7048714000,3131,0xD4,0x20,Write,ACK
7.7049362000,3132,0xD5,0xB0,Read,ACK
7.7049666000,3132,0xD5,0xFC,Read,ACK
7.7049970000,3132,0xD5,0x60,Read,ACK
7.7050274000,3132,0xD5,0x00,Read,ACK
7.7050578000,3132,0xD5,0x65,Read,ACK
7.7050882000,3132,0xD5,0xFF,Read,ACK
7.7051186000,3132,0xD5,0xB5,Read,ACK
7.7051488000,3132,0xD5,0xFF,Read,NAK
7.7244208000,3134,0xD4,0x1E,Write,ACK
7.7244886000,3135,0xD5,0x07,Read,NAK
7.7245550000,3137,0xD4,0x28,Write,ACK
7.7246200000,3138,0xD5,0xE2,Read,ACK
7.7246504000,3138,0xD5,0x00,Read,ACK
7.7246808000,3138,0xD5,0x56,Read,ACK
7.7247112000,3138,0xD5,0xFF,Read,ACK
7.7247414000,3138,0xD5,0x8F,Read,ACK
7.7248158000,3138,0xD5,0x40,Read,NAK
7.7248864000,3140,0xD4,0x20,Write,ACK
7.7249546000,3141,0xD5,0xB4,Read,ACK
7.7249860000,3141,0xD5,0xFC,Read,ACK
7.7250166000,3141,0xD5,0x58,Read,ACK
7.7250472000,3141,0xD5,0x00,Read,ACK
7.7250778000,3141,0xD5,0x63,Read,ACK
7.7251086000,3141,0xD5,0xFF,Read,ACK
7.7251390000,3141,0xD5,0xB3,Read,ACK
7.7251696000,3141,0xD5,0xFF,Read,NAK
7.7444254000,3143,0xD4,0x1E,Write,ACK
7.7444980000,3144,0xD5,0x07,Read,NAK
7.7445656000,3146,0xD4,0x28,Write,ACK
7.7446304000,3147,0xD5,0xE3,Read,ACK
7.7446608000,3147,0xD5,0x00,Read,ACK
7.7446912000,3147,0xD5,0x5A,Read,ACK
7.7447216000,3147,0xD5,0xFF,Read,ACK
7.7447520000,3147,0xD5,0x8A,Read,ACK
7.7448184000,3147,0xD5,0x40,Read,NAK
7.7448850000,3149,0xD4,0x20,Write,ACK
7.7449498000,3150,0xD5,0xA4,Read,ACK
7.7449802000,3150,0xD5,0xFC,Read,ACK
7.7450106000,3150,0xD5,0x54,Read,ACK
7.7450410000,3150,0xD5,0x00,Read,ACK
7.7450716000,3150,0xD5,0x5C,Read,ACK
7.7451020000,3150,0xD5,0xFF,Read,ACK
7.7451324000,3150,0xD5,0xAD,Read,ACK
7.7451628000,3150,0xD5,0xFF,Read,NAK
7.7644292000,3152,0xD4,0x1E,Write,ACK
7.7644996000,3153,0xD5,0x07,Read,NAK
7.7645682000,3155,0xD4,0x28,Write,ACK
7.7646332000,3156,0xD5,0xE4,Read,ACK
7.7646634000,3156,0xD5,0x00,Read,ACK
7.7646940000,3156,0xD5,0x5C,Read,ACK
7.7647242000,3156,0xD5,0xFF,Read,ACK
7.7647546000,3156,0xD5,0x8E,Read,ACK
7.7648238000,3156,0xD5,0x40,Read,NAK
7.7648904000,3158,0xD4,0x20,Write,ACK
7.7649552000,3159,0xD5,0xAE,Read,ACK
7.7649856000,3159,0xD5,0xFC,Read,ACK
7.7650160000,3159,0xD5,0x56,Read,ACK
7.7650464000,3159,0xD5,0x00,Read,ACK
7.7650768000,3159,0xD5,0x64,Read,ACK
7.7651074000,3159,0xD5,0xFF,Read,ACK
7.7651376000,3159,0xD5,0xAE,Read,ACK
7.7651680000,3159,0xD5,0xFF,Read,NAK
7.7844412000,3161,0xD4,0x1E,Write,ACK
7.7845060000,3162,0xD5,0x07,Read,NAK
7.7845726000,3164,0xD4,0x28,Write,ACK
7.7846374000,3165,0xD5,0xE3,Read,ACK
7.7846678000,3165,0xD5,0x00,Read,ACK
7.7846982000,3165,0xD5,0x5A,Read,ACK
7.7847286000,3165,0xD5,0xFF,Read,ACK
7.7847590000,3165,0xD5,0x94,Read,ACK
7.7848292000,3165,0xD5,0x40,Read,NAK
7.7848958000,3167,0xD4,0x20,Write,ACK
7.7849606000,3168,0xD5,0xAA,Read,ACK
7.7849910000,3168,0xD5,0xFC,Read,ACK
7.7850214000,3168,0xD5,0x6A,Read,ACK
7.7850518000,3168,0xD5,0x00,Read,ACK
7.7850822000,3168,0xD5,0x5B,Read,ACK
7.7851126000,3168,0xD5,0xFF,Read,ACK
7.7851430000,3168,0xD5,0xB4,Read,ACK
7.7851734000,3168,0xD5,0xFF,Read,NAK
7.8044318000,3170,0xD4,0x1E,Write,ACK
7.8044994000,3171,0xD5,0x07,Read,NAK
7.8045658000,3173,0xD4,0x28,Write,ACK
7.8046304000,3174,0xD5,0xDF,Read,ACK
7.8046608000,3174,0xD5,0x00,Read,ACK
7.8046912000,3174,0xD5,0x58,Read,ACK
7.8047216000,3174,0xD5,0xFF,Read,ACK
7.8047518000,3174,0xD5,0x8E,Read,ACK
7.8047822000,3174,0xD5,0x40,Read,NAK
7.8048716000,3176,0xD4,0x20,Write,ACK
7.8049364000,3177,0xD5,0xB4,Read,ACK
7.8049668000,3177,0xD5,0xFC,Read,ACK
7.8049970000,3177,0xD5,0x6F,Read,ACK
7.8050274000,3177,0xD5,0x00,Read,ACK
7.8050578000,3177,0xD5,0x59,Read,ACK
7.8050882000,3177,0xD5,0xFF,Read,ACK
7.8051186000,3177,0xD5,0xB7,Read,ACK
7.8051490000,3177,0xD5,0xFF,Read,NAK
7.8244446000,3179,0xD4,0x1E,Write,ACK
7.8245094000,3180,0xD5,0x07,Read,NAK
7.8245758000,3182,0xD4,0x28,Write,ACK
7.8246406000,3183,0xD5,0xDC,Read,ACK
7.8246710000,3183,0xD5,0x00,Read,ACK
7.8247014000,3183,0xD5,0x5A,Read,ACK
7.8247318000,3183,0xD5,0xFF,Read,ACK
7.8247622000,3183,0xD5,0x8C,Read,ACK
7.8248394000,3183,0xD5,0x40,Read,NAK
7.8249108000,3185,0xD4,0x20,Write,ACK
7.8249780000,3186,0xD5,0xB7,Read,ACK
7.8250090000,3186,0xD5,0xFC,Read,ACK
7.8250404000,3186,0xD5,0x5D,Read,ACK
7.8250710000,3186,0xD5,0x00,Read,ACK
7.8251024000,3186,0xD5,0x5E,Read,ACK
7.8251332000,3186,0xD5,0xFF,Read,ACK
7.8251636000,3186,0xD5,0xB8,Read,ACK
7.8251980000,3186,0xD5,0xFF,Read,NAK
7.8444472000,3188,0xD4,0x1E,Write,ACK
7.8445168000,3189,0xD5,0x07,Read,NAK
7.8445844000,3191,0xD4,0x28,Write,ACK
7.8446494000,3192,0xD5,0xE2,Read,ACK
7.8446798000,3192,0xD5,0x00,Read,ACK
7.8447102000,3192,0xD5,0x59,Read,ACK
7.8447406000,3192,0xD5,0xFF,Read,ACK
7.8447708000,3192,0xD5,0x90,Read,ACK
7.8448450000,3192,0xD5,0x40,Read,NAK
7.8449116000,3194,0xD4,0x20,Write,ACK
7.8449764000,3195,0xD5,0xB7,Read,ACK
7.8450068000,3195,0xD5,0xFC,Read,ACK
7.8450372000,3195,0xD5,0x61,Read,ACK
7.8450674000,3195,0xD5,0x00,Read,ACK
7.8450980000,3195,0xD5,0x65,Read,ACK
7.8451284000,3195,0xD5,0xFF,Read,ACK
7.8451588000,3195,0xD5,0xB6,Read,ACK
7.8451892000,3195,0xD5,0xFF,Read,NAK
7.8644674000,3197,0xD4,0x1E,Write,ACK
7.8645378000,3198,0xD5,0x07,Read,NAK
7.8646052000,3200,0xD4,0x28,Write,ACK
7.8646702000,3201,0xD5,0xE4,Read,ACK
7.8647006000,3201,0xD5,0x00,Read,ACK
7.8647310000,3201,0xD5,0x5B,Read,ACK
7.8647614000,3201,0xD5,0xFF,Read,ACK
7.8647918000,3201,0xD5,0x8F,Read,ACK
7.8648504000,3201,0xD5,0x40,Read,NAK
7.8649168000,3203,0xD4,0x20,Write,ACK
7.8649816000,3204,0xD5,0xBB,Read,ACK
7.8650120000,3204,0xD5,0xFC,Read,ACK
7.8650424000,3204,0xD5,0x58,Read,ACK
7.8650728000,3204,0xD5,0x00,Read,ACK
7.8651034000,3204,0xD5,0x66,Read,ACK
7.8651338000,3204,0xD5,0xFF,Read,ACK
7.8651642000,3204,0xD5,0xB8,Read,ACK
7.8651944000,3204,0xD5,0xFF,Read,NAK
7.8844638000,3206,0xD4,0x1E,Write,ACK
7.8845286000,3207,0xD5,0x07,Read,NAK
7.8845952000,3209,0xD4,0x28,Write,ACK
7.8846600000,3210,0xD5,0xE6,Read,ACK
7.8846904000,3210,0xD5,0x00,Read,ACK
7.8847210000,3210,0xD5,0x5F,Read,ACK
7.8847514000,3210,0xD5,0xFF,Read,ACK
7.8847818000,3210,0xD5,0x8F,Read,ACK
7.8848556000,3210,0xD5,0x40,Read,NAK
7.8849222000,3212,0xD4,0x20,Write,ACK
7.8849870000,3213,0xD5,0xB0,Read,ACK
7.8850174000,3213,0xD5,0xFC,Read,ACK
7.8850478000,3213,0xD5,0x61,Read,ACK
7.8850782000,3213,0xD5,0x00,Read,ACK
7.8851088000,3213,0xD5,0x5E,Read,ACK
7.8851390000,3213,0xD5,0xFF,Read,ACK
7.8851694000,3213,0xD5,0xB5,Read,ACK
7.8851998000,3213,0xD5,0xFF,Read,NAK
7.9044718000,3215,0xD4,0x1E,Write,ACK
7.9045392000,3216,0xD5,0x07,Read,NAK
7.9046056000,3218,0xD4,0x28,Write,ACK
7.9046704000,3219,0xD5,0xE4,Read,ACK
7.9047008000,3219,0xD5,0x00,Read,ACK
7.9047312000,3219,0xD5,0x5E,Read,ACK
7.9047616000,3219,0xD5,0xFF,Read,ACK
7.9047918000,3219,0xD5,0x96,Read,ACK
7.9048610000,3219,0xD5,0x40,Read,NAK
7.9049276000,3221,0xD4,0x20,Write,ACK
7.9049922000,3222,0xD5,0xB9,Read,ACK
7.9050226000,3222,0xD5,0xFC,Read,ACK
7.9050530000,3222,0xD5,0x51,Read,ACK
7.9050834000,3222,0xD5,0x00,Read,ACK
7.9051140000,3222,0xD5,0x69,Read,ACK
7.9051442000,3222,0xD5,0xFF,Read,ACK
7.9051746000,3222,0xD5,0xAF,Read,ACK
7.9052050000,3222,0xD5,0xFF,Read,NAK
7.9244744000,3224,0xD4,0x1E,Write,ACK
7.9245392000,3225,0xD5,0x07,Read,NAK
7.9246058000,3227,0xD4,0x28,Write,ACK
7.9246706000,3228,0xD5,0xE3,Read,ACK
7.9247010000,3228,0xD5,0x00,Read,ACK
7.9247314000,3228,0xD5,0x5D,Read,ACK
7.9247618000,3228,0xD5,0xFF,Read,ACK
7.9247922000,3228,0xD5,0x9A,Read,ACK
7.9248692000,3228,0xD5,0x40,Read,NAK
7.9249388000,3230,0xD4,0x20,Write,ACK
7.9250096000,3231,0xD5,0xB2,Read,ACK
7.9250402000,3231,0xD5,0xFC,Read,ACK
7.9250708000,3231,0xD5,0x57,Read,ACK
7.9251014000,3231,0xD5,0x00,Read,ACK
7.9251322000,3231,0xD5,0x5E,Read,ACK
7.9251630000,3231,0xD5,0xFF,Read,ACK
7.9251942000,3231,0xD5,0xA7,Read,ACK
7.9252244000,3231,0xD5,0xFF,Read,NAK
7.9444734000,3233,0xD4,0x1E,Write,ACK
7.9445420000,3234,0xD5,0x07,Read,NAK
7.9446094000,3236,0xD4,0x28,Write,ACK
7.9446744000,3237,0xD5,0xE7,Read,ACK
7.9447048000,3237,0xD5,0x00,Read,ACK
7.9447352000,3237,0xD5,0x5D,Read,ACK
7.9447656000,3237,0xD5,0xFF,Read,ACK
7.9447960000,3237,0xD5,0x94,Read,ACK
7.9448708000,3237,0xD5,0x40,Read,NAK
7.9449374000,3239,0xD4,0x20,Write,ACK
7.9450022000,3240,0xD5,0xB7,Read,ACK
7.9450326000,3240,0xD5,0xFC,Read,ACK
7.9450628000,3240,0xD5,0x51,Read,ACK
7.9450932000,3240,0xD5,0x00,Read,ACK
7.9451238000,3240,0xD5,0x5B,Read,ACK
7.9451542000,3240,0xD5,0xFF,Read,ACK
7.9451844000,3240,0xD5,0xAD,Read,ACK
7.9452148000,3240,0xD5,0xFF,Read,NAK
7.9644946000,3242,0xD4,0x1E,Write,ACK
7.9645650000,3243,0xD5,0x07,Read,NAK
7.9646326000,3245,0xD4,0x28,Write,ACK
7.9646974000,3246,0xD5,0xE9,Read,ACK
7.9647278000,3246,0xD5,0x00,Read,ACK
7.9647582000,3246,0xD5,0x5E,Read,ACK
7.9647886000,3246,0xD5,0xFF,Read,ACK
7.9648190000,3246,0xD5,0x91,Read,ACK
7.9648772000,3246,0xD5,0x40,Read,NAK
7.9649438000,3248,0xD4,0x20,Write,ACK
7.9650086000,3249,0xD5,0xBC,Read,ACK
7.9650390000,3249,0xD5,0xFC,Read,ACK
7.9650694000,3249,0xD5,0x4F,Read,ACK
7.9650998000,3249,0xD5,0x00,Read,ACK
7.9651304000,3249,0xD5,0x61,Read,ACK
7.9651608000,3249,0xD5,0xFF,Read,ACK
7.9651910000,3249,0xD5,0xAD,Read,ACK
7.9652214000,3249,0xD5,0xFF,Read,NAK
7.9844798000,3251,0xD4,0x1E,Write,ACK
7.9845474000,3252,0xD5,0x07,Read,NAK
7.9846138000,3254,0xD4,0x28,Write,ACK
7.9846786000,3255,0xD5,0xE5,Read,ACK
7.9847090000,3255,0xD5,0x00,Read,ACK
7.9847394000,3255,0xD5,0x60,Read,ACK
7.9847698000,3255,0xD5,0xFF,Read,ACK
7.9848000000,3255,0xD5,0x93,Read,ACK
7.9848304000,3255,0xD5,0x40,Read,NAK
7.9849192000,3257,0xD4,0x20,Write,ACK
7.9849840000,3258,0xD5,0xC1,Read,ACK
7.9850142000,3258,0xD5,0xFC,Read,ACK
7.9850446000,3258,0xD5,0x47,Read,ACK
7.9850750000,3258,0xD5,0x00,Read,ACK
7.9851054000,3258,0xD5,0x68,Read,ACK
7.9851358000,3258,0xD5,0xFF,Read,ACK
7.9851662000,3258,0xD5,0xAC,Read,ACK
7.9851966000,3258,0xD5,0xFF,Read,NAK
8.0044952000,3260,0xD4,0x1E,Write,ACK
8.0045600000,3261,0xD5,0x07,Read,NAK
8.0046264000,3263,0xD4,0x28,Write,ACK
8.0046912000,3264,0xD5,0xE0,Read,ACK
8.0047216000,3264,0xD5,0x00,Read,ACK
8.0047520000,3264,0xD5,0x62,Read,ACK
8.0047824000,3264,0xD5,0xFF,Read,ACK
8.0048126000,3264,0xD5,0x93,Read,ACK
8.0048874000,3264,0xD5,0x40,Read,NAK
8.0049538000,3266,0xD4,0x20,Write,ACK
8.0050188000,3267,0xD5,0xB1,Read,ACK
8.0050490000,3267,0xD5,0xFC,Read,ACK
8.0050794000,3267,0xD5,0x45,Read,ACK
8.0051098000,3267,0xD5,0x00,Read,ACK
8.0051402000,3267,0xD5,0x62,Read,ACK
8.0051706000,3267,0xD5,0xFF,Read,ACK
8.0052008000,3267,0xD5,0xAC,Read,ACK
8.0052312000,3267,0xD5,0xFF,Read,NAK
8.0244904000,3269,0xD4,0x1E,Write,ACK
8.0245582000,3270,0xD5,0x07,Read,NAK
8.0246246000,3272,0xD4,0x28,Write,ACK
8.0246894000,3273,0xD5,0xE1,Read,ACK
8.0247198000,3273,0xD5,0x00,Read,ACK
8.0247504000,3273,0xD5,0x62,Read,ACK
8.0247806000,3273,0xD5,0xFF,Read,ACK
8.0248110000,3273,0xD5,0x92,Read,ACK
8.0248414000,3273,0xD5,0x40,Read,NAK
8.0249376000,3275,0xD4,0x20,Write,ACK
8.0250052000,3276,0xD5,0xBE,Read,ACK
8.0250358000,3276,0xD5,0xFC,Read,ACK
8.0250664000,3276,0xD5,0x58,Read,ACK
8.0250970000,3276,0xD5,0x00,Read,ACK
8.0251276000,3276,0xD5,0x5E,Read,ACK
8.0251582000,3276,0xD5,0xFF,Read,ACK
8.0251890000,3276,0xD5,0xAB,Read,ACK
8.0252280000,3276,0xD5,0xFF,Read,NAK
8.0445006000,3278,0xD4,0x1E,Write,ACK
8.0445664000,3279,0xD5,0x07,Read,NAK
8.0446330000,3281,0xD4,0x28,Write,ACK
8.0446988000,3282,0xD5,0xE2,Read,ACK
8.0447292000,3282,0xD5,0x00,Read,ACK
8.0447596000,3282,0xD5,0x5D,Read,ACK
8.0447900000,3282,0xD5,0xFF,Read,ACK
8.0448204000,3282,0xD5,0x90,Read,ACK
8.0448954000,3282,0xD5,0x40,Read,NAK
8.0449618000,3284,0xD4,0x20,Write,ACK
8.0450268000,3285,0xD5,0xB3,Read,ACK
8.0450570000,3285,0xD5,0xFC,Read,ACK
8.0450874000,3285,0xD5,0x5A,Read,ACK
8.0451178000,3285,0xD5,0x00,Read,ACK
8.0451484000,3285,0xD5,0x66,Read,ACK
8.0451788000,3285,0xD5,0xFF,Read,ACK
8.0452090000,3285,0xD5,0xB2,Read,ACK
8.0452394000,3285,0xD5,0xFF,Read,NAK
8.0645210000,3287,0xD4,0x1E,Write,ACK
8.0645914000,3288,0xD5,0x07,Read,NAK
8.0646588000,3290,0xD4,0x28,Write,ACK
8.0647236000,3291,0xD5,0xE2,Read,ACK
8.0647540000,3291,0xD5,0x00,Read,ACK
8.0647844000,3291,0xD5,0x5B,Read,ACK
8.0648148000,3291,0xD5,0xFF,Read,ACK
8.0648452000,3291,0xD5,0x90,Read,ACK
8.0649038000,3291,0xD5,0x40,Read,NAK
8.0649702000,3293,0xD4,0x20,Write,ACK
8.0650350000,3294,0xD5,0xB4,Read,ACK
8.0650654000,3294,0xD5,0xFC,Read,ACK
8.0650958000,3294,0xD5,0x5F,Read,ACK
8.0651260000,3294,0xD5,0x00,Read,ACK
8.0651564000,3294,0xD5,0x5C,Read,ACK
8.0651870000,3294,0xD5,0xFF,Read,ACK
8.0652172000,3294,0xD5,0xAF,Read,ACK
8.0652476000,3294,0xD5,0xFF,Read,NAK
8.0845192000,3296,0xD4,0x1E,Write,ACK
8.0845868000,3297,0xD5,0x07,Read,NAK
8.0846532000,3299,0xD4,0x28,Write,ACK
8.0847180000,3300,0xD5,0xE0,Read,ACK
8.0847484000,3300,0xD5,0x00,Read,ACK
8.0847788000,3300,0xD5,0x5C,Read,ACK
8.0848092000,3300,0xD5,0xFF,Read,ACK
8.0848394000,3300,0xD5,0x92,Read,ACK
8.0849090000,3300,0xD5,0x40,Read,NAK
8.0849756000,3302,0xD4,0x20,Write,ACK
8.0850402000,3303,0xD5,0xC0,Read,ACK
8.0850706000,3303,0xD5,0xFC,Read,ACK
8.0851010000,3303,0xD5,0x51,Read,ACK
8.0851314000,3303,0xD5,0x00,Read,ACK
8.0851618000,3303,0xD5,0x69,Read,ACK
8.0851922000,3303,0xD5,0xFF,Read,ACK
8.0852224000,3303,0xD5,0xAF,Read,ACK
8.0852526000,3303,0xD5,0xFF,Read,NAK
8.1045216000,3305,0xD4,0x1E,Write,ACK
8.1045862000,3306,0xD5,0x07,Read,NAK
8.1046526000,3308,0xD4,0x28,Write,ACK
8.1047174000,3309,0xD5,0xDE,Read,ACK
8.1047476000,3309,0xD5,0x00,Read,ACK
8.1047780000,3309,0xD5,0x5F,Read,ACK
8.1048084000,3309,0xD5,0xFF,Read,ACK
8.1048386000,3309,0xD5,0x8F,Read,ACK
8.1049134000,3309,0xD5,0x40,Read,NAK
8.1049798000,3311,0xD4,0x20,Write,ACK
8.1050446000,3312,0xD5,0xB9,Read,ACK
8.1050750000,3312,0xD5,0xFC,Read,ACK
8.1051054000,3312,0xD5,0x4F,Read,ACK
8.1051358000,3312,0xD5,0x00,Read,ACK
8.1051662000,3312,0xD5,0x5E,Read,ACK
8.1051966000,3312,0xD5,0xFF,Read,ACK
8.1052266000,3312,0xD5,0xA8,Read,ACK
8.1052570000,3312,0xD5,0xFF,Read,NAK
8.1245300000,3314,0xD4,0x1E,Write,ACK
8.1245976000,3315,0xD5,0x07,Read,NAK
8.1246642000,3317,0xD4,0x28,Write,ACK
8.1247290000,3318,0xD5,0xE0,Read,ACK
8.1247594000,3318,0xD5,0x00,Read,ACK
8.1247898000,3318,0xD5,0x60,Read,ACK
8.1248204000,3318,0xD5,0xFF,Read,ACK
8.1248506000,3318,0xD5,0x90,Read,ACK
8.1249224000,3318,0xD5,0x40,Read,NAK
8.1249918000,3320,0xD4,0x20,Write,ACK
8.1250626000,3321,0xD5,0xB7,Read,ACK
8.1250938000,3321,0xD5,0xFC,Read,ACK
8.1251244000,3321,0xD5,0x5A,Read,ACK
8.1251556000,3321,0xD5,0x00,Read,ACK
8.1251862000,3321,0xD5,0x5C,Read,ACK
8.1252170000,3321,0xD5,0xFF,Read,ACK
8.1252476000,3321,0xD5,0xAA,Read,ACK
8.1252780000,3321,0xD5,0xFF,Read,NAK
8.1445260000,3323,0xD4,0x1E,Write,ACK
8.1445916000,3324,0xD5,0x07,Read,NAK
8.1446582000,3326,0xD4,0x28,Write,ACK
8.1447240000,3327,0xD5,0xDE,Read,ACK
8.1447544000,3327,0xD5,0x00,Read,ACK
8.1447848000,3327,0xD5,0x5C,Read,ACK
8.1448152000,3327,0xD5,0xFF,Read,ACK
8.1448456000,3327,0xD5,0x8F,Read,ACK
8.1449204000,3327,0xD5,0x40,Read,NAK
8.1449870000,3329,0xD4,0x20,Write,ACK
8.1450518000,3330,0xD5,0xB7,Read,ACK
8.1450820000,3330,0xD5,0xFC,Read,ACK
8.1451124000,3330,0xD5,0x59,Read,ACK
8.1451428000,3330,0xD5,0x00,Read,ACK
8.1451734000,3330,0xD5,0x64,Read,ACK
8.1452038000,3330,0xD5,0xFF,Read,ACK
8.1452340000,3330,0xD5,0xB0,Read,ACK
8.1452644000,3330,0xD5,0xFF,Read,NAK
8.1645302000,3332,0xD4,0x1E,Write,ACK
8.1646006000,3333,0xD5,0x07,Read,NAK
8.1646680000,3335,0xD4,0x28,Write,ACK
8.1647330000,3336,0xD5,0xDC,Read,ACK
8.1647632000,3336,0xD5,0x00,Read,ACK
8.1647938000,3336,0xD5,0x59,Read,ACK
8.1648242000,3336,0xD5,0xFF,Read,ACK
8.1648544000,3336,0xD5,0x8C,Read,ACK
8.1649292000,3336,0xD5,0x40,Read,NAK
8.1649958000,3338,0xD4,0x20,Write,ACK
8.1650606000,3339,0xD5,0xC8,Read,ACK
8.1650910000,3339,0xD5,0xFC,Read,ACK
8.1651214000,3339,0xD5,0x56,Read,ACK
8.1651518000,3339,0xD5,0x00,Read,ACK
8.1651822000,3339,0xD5,0x66,Read,ACK
8.1652126000,3339,0xD5,0xFF,Read,ACK
8.1652430000,3339,0xD5,0xAF,Read,ACK
8.1652732000,3339,0xD5,0xFF,Read,NAK
8.1845448000,3341,0xD4,0x1E,Write,ACK
8.1846094000,3342,0xD5,0x07,Read,NAK
8.1846760000,3344,0xD4,0x28,Write,ACK
8.1847408000,3345,0xD5,0xDE,Read,ACK
8.1847712000,3345,0xD5,0x00,Read,ACK
8.1848018000,3345,0xD5,0x59,Read,ACK
8.1848320000,3345,0xD5,0xFF,Read,ACK
8.1848624000,3345,0xD5,0x87,Read,ACK
8.1849356000,3345,0xD5,0x40,Read,NAK
8.1850020000,3347,0xD4,0x20,Write,ACK
8.1850670000,3348,0xD5,0xC1,Read,ACK
8.1850974000,3348,0xD5,0xFC,Read,ACK
8.1851276000,3348,0xD5,0x59,Read,ACK
8.1851580000,3348,0xD5,0x00,Read,ACK
8.1851886000,3348,0xD5,0x5E,Read,ACK
8.1852190000,3348,0xD5,0xFF,Read,ACK
8.1852494000,3348,0xD5,0xAC,Read,ACK
8.1852798000,3348,0xD5,0xFF,Read,NAK
8.2045378000,3350,0xD4,0x1E,Write,ACK
8.2046052000,3351,0xD5,0x07,Read,NAK
8.2046718000,3353,0xD4,0x28,Write,ACK
8.2047366000,3354,0xD5,0xE0,Read,ACK
8.2047670000,3354,0xD5,0x00,Read,ACK
8.2047974000,3354,0xD5,0x59,Read,ACK
8.2048278000,3354,0xD5,0xFF,Read,ACK
8.2048580000,3354,0xD5,0x88,Read,ACK
8.2048884000,3354,0xD5,0x40,Read,NAK
8.2049772000,3356,0xD4,0x20,Write,ACK
8.2050420000,3357,0xD5,0xBD,Read,ACK
8.2050724000,3357,0xD5,0xFC,Read,ACK
8.2051028000,3357,0xD5,0x53,Read,ACK
8.2051330000,3357,0xD5,0x00,Read,ACK
8.2051636000,3357,0xD5,0x67,Read,ACK
8.2051938000,3357,0xD5,0xFF,Read,ACK
8.2052242000,3357,0xD5,0xAF,Read,ACK
8.2052546000,3357,0xD5,0xFF,Read,NAK
8.2245536000,3359,0xD4,0x1E,Write,ACK
8.2246182000,3360,0xD5,0x07,Read,NAK
8.2246848000,3362,0xD4,0x28,Write,ACK
8.2247498000,3363,0xD5,0xE0,Read,ACK
8.2247802000,3363,0xD5,0x00,Read,ACK
8.2248106000,3363,0xD5,0x59,Read,ACK
8.2248410000,3363,0xD5,0xFF,Read,ACK
8.2248714000,3363,0xD5,0x8E,Read,ACK
8.2249488000,3363,0xD5,0x40,Read,NAK
8.2250190000,3365,0xD4,0x20,Write,ACK
8.2250896000,3366,0xD5,0xB5,Read,ACK
8.2251202000,3366,0xD5,0xFC,Read,ACK
8.2251508000,3366,0xD5,0x57,Read,ACK
8.2251814000,3366,0xD5,0x00,Read,ACK
8.2252124000,3366,0xD5,0x5E,Read,ACK
8.2252430000,3366,0xD5,0xFF,Read,ACK
8.2252738000,3366,0xD5,0xB2,Read,ACK
8.2253042000,3366,0xD5,0xFF,Read,NAK
8.2445514000,3368,0xD4,0x1E,Write,ACK
8.2446170000,3369,0xD5,0x07,Read,NAK
8.2446836000,3371,0xD4,0x28,Write,ACK
8.2447494000,3372,0xD5,0xDE,Read,ACK
8.2447798000,3372,0xD5,0x00,Read,ACK
8.2448102000,3372,0xD5,0x5A,Read,ACK
8.2448406000,3372,0xD5,0xFF,Read,ACK
8.2448710000,3372,0xD5,0x8C,Read,ACK
8.2449014000,3372,0xD5,0x40,Read,NAK
8.2449862000,3374,0xD4,0x20,Write,ACK
8.2450510000,3375,0xD5,0xC0,Read,ACK
8.2450814000,3375,0xD5,0xFC,Read,ACK
8.2451118000,3375,0xD5,0x53,Read,ACK
8.2451422000,3375,0xD5,0x00,Read,ACK
8.2451726000,3375,0xD5,0x59,Read,ACK
8.2452030000,3375,0xD5,0xFF,Read,ACK
8.2452334000,3375,0xD5,0xB2,Read,ACK
8.2452638000,3375,0xD5,0xFF,Read,NAK
8.2645726000,3377,0xD4,0x1E,Write,ACK
8.2646430000,3378,0xD5,0x07,Read,NAK
8.2647106000,3380,0xD4,0x28,Write,ACK
8.2647756000,3381,0xD5,0xDC,Read,ACK
8.2648058000,3381,0xD5,0x00,Read,ACK
8.2648364000,3381,0xD5,0x59,Read,ACK
8.2648668000,3381,0xD5,0xFF,Read,ACK
8.2648972000,3381,0xD5,0x8F,Read,ACK
8.2649568000,3381,0xD5,0x40,Read,NAK
8.2650234000,3383,0xD4,0x20,Write,ACK
8.2650882000,3384,0xD5,0xC9,Read,ACK
8.2651186000,3384,0xD5,0xFC,Read,ACK
8.2651488000,3384,0xD5,0x54,Read,ACK
8.2651794000,3384,0xD5,0x00,Read,ACK
8.2652098000,3384,0xD5,0x67,Read,ACK
8.2652402000,3384,0xD5,0xFF,Read,ACK
8.2652706000,3384,0xD5,0xB2,Read,ACK
8.2653010000,3384,0xD5,0xFF,Read,NAK
8.2845692000,3386,0xD4,0x1E,Write,ACK
8.2846340000,3387,0xD5,0x07,Read,NAK
8.2847004000,3389,0xD4,0x28,Write,ACK
8.2847652000,3390,0xD5,0xDD,Read,ACK
8.2847956000,3390,0xD5,0x00,Read,ACK
8.2848260000,3390,0xD5,0x5A,Read,ACK
8.2848564000,3390,0xD5,0xFF,Read,ACK
8.2848866000,3390,0xD5,0x8C,Read,ACK
8.2849614000,3390,0xD5,0x40,Read,NAK
8.2850280000,3392,0xD4,0x20,Write,ACK
8.2850928000,3393,0xD5,0xC5,Read,ACK
8.2851232000,3393,0xD5,0xFC,Read,ACK
8.2851534000,3393,0xD5,0x5E,Read,ACK
8.2851838000,3393,0xD5,0x00,Read,ACK
8.2852142000,3393,0xD5,0x60,Read,ACK
8.2852446000,3393,0xD5,0xFF,Read,ACK
8.2852750000,3393,0xD5,0xB4,Read,ACK
8.2853054000,3393,0xD5,0xFF,Read,NAK
8.3045772000,3395,0xD4,0x1E,Write,ACK
8.3046448000,3396,0xD5,0x07,Read,NAK
8.3047112000,3398,0xD4,0x28,Write,ACK
8.3047760000,3399,0xD5,0xE2,Read,ACK
8.3048064000,3399,0xD5,0x00,Read,ACK
8.3048368000,3399,0xD5,0x5C,Read,ACK
8.3048672000,3399,0xD5,0xFF,Read,ACK
8.3048976000,3399,0xD5,0x88,Read,ACK
8.3049674000,3399,0xD5,0x40,Read,NAK
8.3050338000,3401,0xD4,0x20,Write,ACK
8.3050986000,3402,0xD5,0xBD,Read,ACK
8.3051288000,3402,0xD5,0xFC,Read,ACK
8.3051590000,3402,0xD5,0x5E,Read,ACK
8.3051894000,3402,0xD5,0x00,Read,ACK
8.3052198000,3402,0xD5,0x62,Read,ACK
8.3052502000,3402,0xD5,0xFF,Read,ACK
8.3052806000,3402,0xD5,0xB3,Read,ACK
8.3053108000,3402,0xD5,0xFF,Read,NAK
8.3245798000,3404,0xD4,0x1E,Write,ACK
8.3246446000,3405,0xD5,0x07,Read,NAK
8.3247112000,3407,0xD4,0x28,Write,ACK
8.3247758000,3408,0xD5,0xE4,Read,ACK
8.3248064000,3408,0xD5,0x00,Read,ACK
8.3248368000,3408,0xD5,0x5C,Read,ACK
8.3248672000,3408,0xD5,0xFF,Read,ACK
8.3248974000,3408,0xD5,0x86,Read,ACK
8.3249750000,3408,0xD5,0x40,Read,NAK
8.3250434000,3410,0xD4,0x20,Write,ACK
8.3251140000,3411,0xD5,0xBF,Read,ACK
8.3251446000,3411,0xD5,0xFC,Read,ACK
8.3251752000,3411,0xD5,0x5A,Read,ACK
8.3252058000,3411,0xD5,0x00,Read,ACK
8.3252364000,3411,0xD5,0x6A,Read,ACK
8.3252672000,3411,0xD5,0xFF,Read,ACK
8.3252978000,3411,0xD5,0xB1,Read,ACK
8.3253282000,3411,0xD5,0xFF,Read,NAK
8.3445790000,3413,0xD4,0x1E,Write,ACK
8.3446608000,3414,0xD5,0x07,Read,NAK
8.3447284000,3416,0xD4,0x28,Write,ACK
8.3447932000,3417,0xD5,0xE6,Read,ACK
8.3448236000,3417,0xD5,0x00,Read,ACK
8.3448540000,3417,0xD5,0x5C,Read,ACK
8.3448844000,3417,0xD5,0xFF,Read,ACK
8.3449148000,3417,0xD5,0x86,Read,ACK
8.3449780000,3417,0xD5,0x40,Read,NAK
8.3450446000,3419,0xD4,0x20,Write,ACK
8.3451094000,3420,0xD5,0xBD,Read,ACK
8.3451398000,3420,0xD5,0xFC,Read,ACK
8.3451702000,3420,0xD5,0x5D,Read,ACK
8.3452006000,3420,0xD5,0x00,Read,ACK
8.3452312000,3420,0xD5,0x69,Read,ACK
8.3452616000,3420,0xD5,0xFF,Read,ACK
8.3452920000,3420,0xD5,0xB7,Read,ACK
8.3453224000,3420,0xD5,0xFF,Read,NAK
8.3645990000,3422,0xD4,0x1E,Write,ACK
8.3646696000,3423,0xD5,0x07,Read,NAK
8.3647370000,3425,0xD4,0x28,Write,ACK
8.3648020000,3426,0xD5,0xE4,Read,ACK
8.3648324000,3426,0xD5,0x00,Read,ACK
8.3648628000,3426,0xD5,0x5D,Read,ACK
8.3648932000,3426,0xD5,0xFF,Read,ACK
8.3649236000,3426,0xD5,0x94,Read,ACK
8.3649834000,3426,0xD5,0x40,Read,NAK
8.3650498000,3428,0xD4,0x20,Write,ACK
8.3651148000,3429,0xD5,0xC3,Read,ACK
8.3651452000,3429,0xD5,0xFC,Read,ACK
8.3651756000,3429,0xD5,0x5D,Read,ACK
8.3652060000,3429,0xD5,0x00,Read,ACK
8.3652364000,3429,0xD5,0x72,Read,ACK
8.3652668000,3429,0xD5,0xFF,Read,ACK
8.3652972000,3429,0xD5,0xB4,Read,ACK
8.3653274000,3429,0xD5,0xFF,Read,NAK
8.3845852000,3431,0xD4,0x1E,Write,ACK
8.3846526000,3432,0xD5,0x07,Read,NAK
8.3847190000,3434,0xD4,0x28,Write,ACK
8.3847838000,3435,0xD5,0xE2,Read,ACK
8.3848142000,3435,0xD5,0x00,Read,ACK
8.3848446000,3435,0xD5,0x57,Read,ACK
8.3848748000,3435,0xD5,0xFF,Read,ACK
8.3849052000,3435,0xD5,0x8C,Read,ACK
8.3849356000,3435,0xD5,0x40,Read,NAK
8.3850302000,3437,0xD4,0x20,Write,ACK
8.3850950000,3438,0xD5,0xBB,Read,ACK
8.3851252000,3438,0xD5,0xFC,Read,ACK
8.3851556000,3438,0xD5,0x5A,Read,ACK
8.3851860000,3438,0xD5,0x00,Read,ACK
8.3852164000,3438,0xD5,0x66,Read,ACK
8.3852468000,3438,0xD5,0xFF,Read,ACK
8.3852772000,3438,0xD5,0xAD,Read,ACK
8.3853074000,3438,0xD5,0xFF,Read,NAK
8.4046006000,3440,0xD4,0x1E,Write,ACK
8.4046652000,3441,0xD5,0x07,Read,NAK
8.4047316000,3443,0xD4,0x28,Write,ACK
8.4047964000,3444,0xD5,0xE0,Read,ACK
8.4048268000,3444,0xD5,0x00,Read,ACK
8.4048572000,3444,0xD5,0x57,Read,ACK
8.4048876000,3444,0xD5,0xFF,Read,ACK
8.4049178000,3444,0xD5,0x8C,Read,ACK
8.4049926000,3444,0xD5,0x40,Read,NAK
8.4050592000,3446,0xD4,0x20,Write,ACK
8.4051240000,3447,0xD5,0xBC,Read,ACK
8.4051542000,3447,0xD5,0xFC,Read,ACK
8.4051846000,3447,0xD5,0x62,Read,ACK
8.4052150000,3447,0xD5,0x00,Read,ACK
8.4052454000,3447,0xD5,0x68,Read,ACK
8.4052758000,3447,0xD5,0xFF,Read,ACK
8.4053060000,3447,0xD5,0xAD,Read,ACK
8.4053364000,3447,0xD5,0xFF,Read,NAK
8.4246062000,3449,0xD4,0x1E,Write,ACK
8.4246710000,3450,0xD5,0x07,Read,NAK
8.4247376000,3452,0xD4,0x28,Write,ACK
